(1597242902.655838) elmcan 257#C3491F0002000000
(1597242902.672695) elmcan 257#C44A1F0002000000
(1597242902.693219) elmcan 257#C54B1F0002000000
(1597242902.712456) elmcan 257#C64C1F0002000000
(1597242902.731201) elmcan 257#C74D1F0002000000
(1597242902.747899) elmcan 257#C84E1F0002000000
(1597242902.767564) elmcan 257#C94F1F0002000000
(1597242902.787649) elmcan 257#BA401F0002000000
(1597242902.807652) elmcan 257#BB411F0002000000
(1597242902.827610) elmcan 257#BC421F0002000000
(1597242902.848795) elmcan 257#BD431F0002000000
(1597242902.867507) elmcan 257#BE441F0002000000
(1597242902.887511) elmcan 257#BF451F0002000000
(1597242902.907540) elmcan 257#C0461F0002000000
(1597242902.927775) elmcan 257#C1471F0002000000
(1597242902.947837) elmcan 257#C2481F0002000000
(1597242902.967557) elmcan 257#C3491F0002000000
(1597242902.992150) elmcan 257#C44A1F0002000000
(1597242903.007485) elmcan 257#C54B1F0002000000
(1597242903.027814) elmcan 257#C64C1F0002000000
(1597242903.049683) elmcan 257#C74D1F0002000000
(1597242903.067465) elmcan 257#C84E1F0002000000
(1597242903.087391) elmcan 257#C94F1F0002000000
(1597242903.107537) elmcan 257#BA401F0002000000
(1597242903.129867) elmcan 257#BB411F0002000000
(1597242903.147552) elmcan 257#BC421F0002000000
(1597242903.167146) elmcan 257#BD431F0002000000
(1597242903.187449) elmcan 257#BE441F0002000000
(1597242903.207397) elmcan 257#BF451F0002000000
(1597242903.227181) elmcan 257#C0461F0002000000
(1597242903.250196) elmcan 257#C1471F0002000000
(1597242903.287977) elmcan 257#C3491F0002000000
(1597242903.307971) elmcan 257#C44A1F0002000000
(1597242903.328133) elmcan 257#C54B1F0002000000
(1597242903.348699) elmcan 257#C64C1F0002000000
(1597242903.368280) elmcan 257#C74D1F0002000000
(1597242903.387749) elmcan 257#C84E1F0002000000
(1597242903.407194) elmcan 257#C94F1F0002000000
(1597242903.427259) elmcan 257#BA401F0002000000
(1597242903.454037) elmcan 257#BB411F0002000000
(1597242903.477567) elmcan 257#BC421F0002000000
(1597242903.492727) elmcan 257#BD431F0002000000
(1597242903.512092) elmcan 257#BE441F0002000000
(1597242903.531539) elmcan 257#BF451F0002000000
(1597242903.547380) elmcan 257#C0461F0002000000
(1597242903.567416) elmcan 257#C1471F0002000000
(1597242903.587252) elmcan 257#C2481F0002000000
(1597242903.607363) elmcan 257#C3491F0002000000
(1597242903.627314) elmcan 257#C44A1F0002000000
(1597242903.647515) elmcan 257#C54B1F0002000000
(1597242903.670033) elmcan 257#C64C1F0002000000
(1597242903.687915) elmcan 257#C74D1F0002000000
(1597242903.707999) elmcan 257#C84E1F0002000000
(1597242903.728001) elmcan 257#C94F1F0002000000
(1597242903.747457) elmcan 257#BA401F0002000000
(1597242903.767364) elmcan 257#BB411F0002000000
(1597242903.788744) elmcan 257#BC421F0002000000
(1597242903.808665) elmcan 257#BD431F0002000000
(1597242903.827384) elmcan 257#BE441F0002000000
(1597242903.848742) elmcan 257#BF451F0002000000
(1597242903.869302) elmcan 257#C0461F0002000000
(1597242903.886997) elmcan 257#C1471F0002000000
(1597242903.907733) elmcan 257#C2481F0002000000
(1597242903.947808) elmcan 257#C44A1F0002000000
(1597242903.967232) elmcan 257#C54B1F0002000000
(1597242903.987036) elmcan 257#C64C1F0002000000
(1597242904.006967) elmcan 257#C74D1F0002000000
(1597242904.027173) elmcan 257#C84E1F0002000000
(1597242904.048029) elmcan 257#C94F1F0002000000
(1597242904.070635) elmcan 257#BA401F0002000000
(1597242904.087184) elmcan 257#BB411F0002000000
(1597242904.108584) elmcan 257#BC421F0002000000
(1597242904.127396) elmcan 257#BD431F0002000000
(1597242904.148906) elmcan 257#BE441F0002000000
(1597242904.168164) elmcan 257#BF451F0002000000
(1597242904.188659) elmcan 257#C0461F0002000000
(1597242904.207357) elmcan 257#C1471F0002000000
(1597242904.228842) elmcan 257#C2481F0002000000
(1597242904.256802) elmcan 257#C3491F0002000000
(1597242904.286086) elmcan 257#C44A1F0002000000
(1597242904.293321) elmcan 257#C54B1F0002000000
(1597242904.315111) elmcan 257#C64C1F0002000000
(1597242904.334264) elmcan 257#C74D1F0002000000
(1597242904.348832) elmcan 257#C84E1F0002000000
(1597242904.367196) elmcan 257#C94F1F0002000000
(1597242904.387137) elmcan 257#BA401F0002000000
(1597242904.407201) elmcan 257#BB411F0002000000
(1597242904.426953) elmcan 257#BC421F0002000000
(1597242904.447289) elmcan 257#BD431F0002000000
(1597242904.469199) elmcan 257#BE441F0002000000
(1597242904.487844) elmcan 257#BF451F0002000000
(1597242904.507098) elmcan 257#C0461F0002000000
(1597242904.527063) elmcan 257#C1471F0002000000
(1597242904.547479) elmcan 257#C2481F0002000000
(1597242904.567052) elmcan 257#C3491F0002000000
(1597242904.586958) elmcan 257#C44A1F0002000000
(1597242904.607188) elmcan 257#C54B1F0002000000
(1597242904.626907) elmcan 257#C64C1F0002000000
(1597242904.647400) elmcan 257#C74D1F0002000000
(1597242904.667126) elmcan 257#C84E1F0002000000
(1597242904.687717) elmcan 257#C94F1F0002000000
(1597242904.707128) elmcan 257#BA401F0002000000
(1597242904.727080) elmcan 257#BB411F0002000000
(1597242904.747131) elmcan 257#BC421F0002000000
(1597242904.767133) elmcan 257#BD431F0002000000
(1597242904.787365) elmcan 257#BE441F0002000000
(1597242904.807111) elmcan 257#BF451F0002000000
(1597242904.826953) elmcan 257#C0461F0002000000
(1597242904.847116) elmcan 257#C1471F0002000000
(1597242904.867085) elmcan 257#C2481F0002000000
(1597242904.888788) elmcan 257#C3491F0002000000
(1597242904.908122) elmcan 257#C44A1F0002000000
(1597242904.928020) elmcan 257#C54B1F0002000000
(1597242904.948526) elmcan 257#C64C1F0002000000
(1597242904.968295) elmcan 257#C74D1F0002000000
(1597242904.987928) elmcan 257#C84E1F0002000000
(1597242905.007773) elmcan 257#C94F1F0002000000
(1597242905.027520) elmcan 257#BA401F0002000000
(1597242905.048814) elmcan 257#BB411F0002000000
(1597242905.074799) elmcan 257#BC421F0002000000
(1597242905.096433) elmcan 257#BD431F0002000000
(1597242905.117232) elmcan 257#BE441F0002000000
(1597242905.132789) elmcan 257#BF451F0002000000
(1597242905.153337) elmcan 257#C0461F0002000000
(1597242905.166991) elmcan 257#C1471F0002000000
(1597242905.187592) elmcan 257#C2481F0002000000
(1597242905.207341) elmcan 257#C3491F0002000000
(1597242905.227132) elmcan 257#C44A1F0002000000
(1597242905.247371) elmcan 257#C54B1F0002000000
(1597242905.267114) elmcan 257#C64C1F0002000000
(1597242905.296556) elmcan 257#C74D1F0002000000
(1597242905.308525) elmcan 257#C84E1F0002000000
(1597242905.327598) elmcan 257#C94F1F0002000000
(1597242905.347739) elmcan 257#BA401F0002000000
(1597242905.367405) elmcan 257#BB411F0002000000
(1597242905.387351) elmcan 257#BC421F0002000000
(1597242905.407337) elmcan 257#BD431F0002000000
(1597242905.427650) elmcan 257#BE441F0002000000
(1597242905.447370) elmcan 257#BF451F0002000000
(1597242905.467326) elmcan 257#C0461F0002000000
(1597242905.487637) elmcan 257#C1471F0002000000
(1597242905.508484) elmcan 257#C2481F0002000000
(1597242905.527525) elmcan 257#C3491F0002000000
(1597242905.547362) elmcan 257#C44A1F0002000000
(1597242905.567315) elmcan 257#C54B1F0002000000
(1597242905.587388) elmcan 257#C64C1F0002000000
(1597242905.607379) elmcan 257#C74D1F0002000000
(1597242905.627471) elmcan 257#C84E1F0002000000
(1597242905.647746) elmcan 257#C94F1F0002000000
(1597242905.667522) elmcan 257#BA401F0002000000
(1597242905.687343) elmcan 257#BB411F0002000000
(1597242905.708665) elmcan 257#BC421F0002000000
(1597242905.727521) elmcan 257#BD431F0002000000
(1597242905.747910) elmcan 257#BE441F0002000000
(1597242905.767301) elmcan 257#BF451F0002000000
(1597242905.787366) elmcan 257#C0461F0002000000
(1597242905.807308) elmcan 257#C1471F0002000000
(1597242905.827515) elmcan 257#C2481F0002000000
(1597242905.848030) elmcan 257#C3491F0002000000
(1597242905.871619) elmcan 257#C44A1F0002000000
(1597242905.892183) elmcan 257#C54B1F0002000000
(1597242905.912695) elmcan 257#C64C1F0002000000
(1597242905.933338) elmcan 257#C74D1F0002000000
(1597242905.953514) elmcan 257#C84E1F0002000000
(1597242905.967411) elmcan 257#C94F1F0002000000
(1597242905.987068) elmcan 257#BA401F0002000000
(1597242906.007226) elmcan 257#BB411F0002000000
(1597242906.027511) elmcan 257#BC421F0002000000
(1597242906.047638) elmcan 257#BD431F0002000000
(1597242906.067682) elmcan 257#BE441F0002000000
(1597242906.087682) elmcan 257#BF451F0002000000
(1597242906.110104) elmcan 257#C0461F0002000000
(1597242906.128054) elmcan 257#C1471F0002000000
(1597242906.147737) elmcan 257#C2481F0002000000
(1597242906.167852) elmcan 257#C3491F0002000000
(1597242906.188314) elmcan 257#C44A1F0002000000
(1597242906.208466) elmcan 257#C54B1F0002000000
(1597242906.228790) elmcan 257#C64C1F0002000000
(1597242906.248453) elmcan 257#C74D1F0002000000
(1597242906.268525) elmcan 257#C84E1F0002000000
(1597242906.287743) elmcan 257#C94F1F0002000000
(1597242906.309357) elmcan 257#BA401F0002000000
(1597242906.327416) elmcan 257#BB411F0002000000
(1597242906.347974) elmcan 257#BC421F0002000000
(1597242906.368494) elmcan 257#BD431F0002000000
(1597242906.387041) elmcan 257#BE441F0002000000
(1597242906.406827) elmcan 257#BF451F0002000000
(1597242906.426877) elmcan 257#C0461F0002000000
(1597242906.447442) elmcan 257#C1471F0002000000
(1597242906.467141) elmcan 257#C2481F0002000000
(1597242906.487118) elmcan 257#C3491F0002000000
(1597242906.508017) elmcan 257#C44A1F0002000000
(1597242906.531516) elmcan 257#C54B1F0002000000
(1597242906.548485) elmcan 257#C64C1F0002000000
(1597242906.568697) elmcan 257#C74D1F0002000000
(1597242906.588807) elmcan 257#C84E1F0002000000
(1597242906.608352) elmcan 257#C94F1F0002000000
(1597242906.628417) elmcan 257#BA401F0002000000
(1597242906.648573) elmcan 257#BB411F0002000000
(1597242906.668871) elmcan 257#BC421F0002000000
(1597242906.692335) elmcan 257#BD431F0002000000
(1597242906.711212) elmcan 257#BE441F0002000000
(1597242906.733548) elmcan 257#BF451F0002000000
(1597242906.761771) elmcan 257#C0461F0002000000
(1597242906.769969) elmcan 257#C1471F0002000000
(1597242906.787627) elmcan 257#C2481F0002000000
(1597242906.807001) elmcan 257#C3491F0002000000
(1597242906.827643) elmcan 257#C44A1F0002000000
(1597242906.846957) elmcan 257#C54B1F0002000000
(1597242906.866651) elmcan 257#C64C1F0002000000
(1597242906.887193) elmcan 257#C74D1F0002000000
(1597242906.907438) elmcan 257#C84E1F0002000000
(1597242906.930861) elmcan 257#C94F1F0002000000
(1597242906.946931) elmcan 257#BA401F0002000000
(1597242906.967458) elmcan 257#BB411F0002000000
(1597242906.987174) elmcan 257#BC421F0002000000
(1597242907.007781) elmcan 257#BD431F0002000000
(1597242907.026925) elmcan 257#BE441F0002000000
(1597242907.048181) elmcan 257#BF451F0002000000
(1597242907.067681) elmcan 257#C0461F0002000000
(1597242907.086764) elmcan 257#C1471F0002000000
(1597242907.107716) elmcan 257#C2481F0002000000
(1597242907.130068) elmcan 257#C3491F0002000000
(1597242907.146968) elmcan 257#C44A1F0002000000
(1597242907.166946) elmcan 257#C54B1F0002000000
(1597242907.186839) elmcan 257#C64C1F0002000000
(1597242907.207043) elmcan 257#C74D1F0002000000
(1597242907.226824) elmcan 257#C84E1F0002000000
(1597242907.246706) elmcan 257#C94F1F0002000000
(1597242907.266739) elmcan 257#BA401F0002000000
(1597242907.286973) elmcan 257#BB411F0002000000
(1597242907.308396) elmcan 257#BC421F0002000000
(1597242907.329590) elmcan 257#BD431F0002000000
(1597242907.347788) elmcan 257#BE441F0002000000
(1597242907.367209) elmcan 257#BF451F0002000000
(1597242907.387323) elmcan 257#C0461F0002000000
(1597242907.407194) elmcan 257#C1471F0002000000
(1597242907.427073) elmcan 257#C2481F0002000000
(1597242907.447409) elmcan 257#C3491F0002000000
(1597242907.467218) elmcan 257#C44A1F0002000000
(1597242907.491074) elmcan 257#C54B1F0002000000
(1597242907.512501) elmcan 257#C64C1F0002000000
(1597242907.532313) elmcan 257#C74D1F0002000000
(1597242907.555796) elmcan 257#C84E1F0002000000
(1597242907.574832) elmcan 257#C94F1F0002000000
(1597242907.588505) elmcan 257#BA401F0002000000
(1597242907.607241) elmcan 257#BB411F0002000000
(1597242907.627723) elmcan 257#BC421F0002000000
(1597242907.647234) elmcan 257#BD431F0002000000
(1597242907.666658) elmcan 257#BE441F0002000000
(1597242907.687041) elmcan 257#BF451F0002000000
(1597242907.707189) elmcan 257#C0461F0002000000
(1597242907.727881) elmcan 257#C1471F0002000000
(1597242907.748726) elmcan 257#C2481F0002000000
(1597242907.768598) elmcan 257#C3491F0002000000
(1597242907.787252) elmcan 257#C44A1F0002000000
(1597242907.807284) elmcan 257#C54B1F0002000000
(1597242907.827360) elmcan 257#C64C1F0002000000
(1597242907.847439) elmcan 257#C74D1F0002000000
(1597242907.867246) elmcan 257#C84E1F0002000000
(1597242907.887473) elmcan 257#C94F1F0002000000
(1597242907.908475) elmcan 257#BA401F0002000000
(1597242907.927220) elmcan 257#BB411F0002000000
(1597242907.949770) elmcan 257#BC421F0002000000
(1597242907.966942) elmcan 257#BD431F0002000000
(1597242907.987117) elmcan 257#BE441F0002000000
(1597242908.007450) elmcan 257#BF451F0002000000
(1597242908.027168) elmcan 257#C0461F0002000000
(1597242908.047398) elmcan 257#C1471F0002000000
(1597242908.067076) elmcan 257#C2481F0002000000
(1597242908.086782) elmcan 257#C3491F0002000000
(1597242908.106884) elmcan 257#C44A1F0002000000
(1597242908.127194) elmcan 257#C54B1F0002000000
(1597242908.150324) elmcan 257#C64C1F0002000000
(1597242908.167899) elmcan 257#C74D1F0002000000
(1597242908.187611) elmcan 257#C84E1F0002000000
(1597242908.206747) elmcan 257#C94F1F0002000000
(1597242908.226646) elmcan 257#BA401F0002000000
(1597242908.247047) elmcan 257#BB411F0002000000
(1597242908.267659) elmcan 257#BC421F0002000000
(1597242908.292982) elmcan 257#BD431F0002000000
(1597242908.312420) elmcan 257#BE441F0002000000
(1597242908.331724) elmcan 257#BF451F0002000000
(1597242908.352765) elmcan 257#C0461F0002000000
(1597242908.372545) elmcan 257#C1471F0002000000
(1597242908.387646) elmcan 257#C2481F0002000000
(1597242908.407281) elmcan 257#C3491F0002000000
(1597242908.427315) elmcan 257#C44A1F0002000000
(1597242908.447475) elmcan 257#C54B1F0002000000
(1597242908.467413) elmcan 257#C64C1F0002000000
(1597242908.487966) elmcan 257#C74D1F0002000000
(1597242908.507509) elmcan 257#C84E1F0002000000
(1597242908.526946) elmcan 257#C94F1F0002000000
(1597242908.549942) elmcan 257#BA401F0002000000
(1597242908.568645) elmcan 257#BB411F0002000000
(1597242908.587374) elmcan 257#BC421F0002000000
(1597242908.607651) elmcan 257#BD431F0002000000
(1597242908.627228) elmcan 257#BE441F0002000000
(1597242908.647312) elmcan 257#BF451F0002000000
(1597242908.667451) elmcan 257#C0461F0002000000
(1597242908.687363) elmcan 257#C1471F0002000000
(1597242908.707399) elmcan 257#C2481F0002000000
(1597242908.728399) elmcan 257#C3491F0002000000
(1597242908.748957) elmcan 257#C44A1F0002000000
(1597242908.767562) elmcan 257#C54B1F0002000000
(1597242908.787935) elmcan 257#C64C1F0002000000
(1597242908.807932) elmcan 257#C74D1F0002000000
(1597242908.827512) elmcan 257#C84E1F0002000000
(1597242908.847917) elmcan 257#C94F1F0002000000
(1597242908.867697) elmcan 257#BA401F0002000000
(1597242908.887657) elmcan 257#BB411F0002000000
(1597242908.908029) elmcan 257#BC421F0002000000
(1597242908.927592) elmcan 257#BD431F0002000000
(1597242908.947724) elmcan 257#BE441F0002000000
(1597242908.967841) elmcan 257#BF451F0002000000
(1597242908.987648) elmcan 257#C0461F0002000000
(1597242909.007738) elmcan 257#C1471F0002000000
(1597242909.027560) elmcan 257#C2481F0002000000
(1597242909.047987) elmcan 257#C3491F0002000000
(1597242909.067689) elmcan 257#C44A1F0002000000
(1597242909.087496) elmcan 257#C54B1F0002000000
(1597242909.107493) elmcan 257#C64C1F0002000000
(1597242909.127515) elmcan 257#C74D1F0002000000
(1597242909.148137) elmcan 257#C84E1F0002000000
(1597242909.167527) elmcan 257#C94F1F0002000000
(1597242909.187475) elmcan 257#BA401F0002000000
(1597242909.207640) elmcan 257#BB411F0002000000
(1597242909.232524) elmcan 257#BC421F0002000000
(1597242909.247579) elmcan 257#BD431F0002000000
(1597242909.267546) elmcan 257#BE441F0002000000
(1597242909.287694) elmcan 257#BF451F0002000000
(1597242909.308059) elmcan 257#C0461F0002000000
(1597242909.327580) elmcan 257#C1471F0002000000
(1597242909.347844) elmcan 257#C2481F0002000000
(1597242909.367543) elmcan 257#C3491F0002000000
(1597242909.387576) elmcan 257#C44A1F0002000000
(1597242909.407933) elmcan 257#C54B1F0002000000
(1597242909.428165) elmcan 257#C64C1F0002000000
(1597242909.448962) elmcan 257#C74D1F0002000000
(1597242909.469145) elmcan 257#C84E1F0002000000
(1597242909.489116) elmcan 257#C94F1F0002000000
(1597242909.510247) elmcan 257#BA401F0002000000
(1597242909.526668) elmcan 257#BB411F0002000000
(1597242909.547076) elmcan 257#BC421F0002000000
(1597242909.568516) elmcan 257#BD431F0002000000
(1597242909.586750) elmcan 257#BE441F0002000000
(1597242909.606489) elmcan 257#BF451F0002000000
(1597242909.626904) elmcan 257#C0461F0002000000
(1597242909.647142) elmcan 257#C1471F0002000000
(1597242909.666505) elmcan 257#C2481F0002000000
(1597242909.686576) elmcan 257#C3491F0002000000
(1597242909.706463) elmcan 257#C44A1F0002000000
(1597242909.726673) elmcan 257#C54B1F0002000000
(1597242909.747079) elmcan 257#C64C1F0002000000
(1597242909.769134) elmcan 257#C74D1F0002000000
(1597242909.788174) elmcan 257#C84E1F0002000000
(1597242909.807731) elmcan 257#C94F1F0002000000
(1597242909.827783) elmcan 257#BA401F0002000000
(1597242909.848288) elmcan 257#BB411F0002000000
(1597242909.868149) elmcan 257#BC421F0002000000
(1597242909.888185) elmcan 257#BD431F0002000000
(1597242909.908257) elmcan 257#BE441F0002000000
(1597242909.928073) elmcan 257#BF451F0002000000
(1597242909.948837) elmcan 257#C0461F0002000000
(1597242909.968514) elmcan 257#C1471F0002000000
(1597242909.988457) elmcan 257#C2481F0002000000
(1597242910.007033) elmcan 257#C3491F0002000000
(1597242910.026597) elmcan 257#C44A1F0002000000
(1597242910.047565) elmcan 257#C54B1F0002000000
(1597242910.066862) elmcan 257#C64C1F0002000000
(1597242910.086516) elmcan 257#C74D1F0002000000
(1597242910.106462) elmcan 257#C84E1F0002000000
(1597242910.126816) elmcan 257#C94F1F0002000000
(1597242910.146657) elmcan 257#BA401F0002000000
(1597242910.166697) elmcan 257#BB411F0002000000
(1597242910.187079) elmcan 257#BC421F0002000000
(1597242910.207082) elmcan 257#BD431F0002000000
(1597242910.226851) elmcan 257#BE441F0002000000
(1597242910.246826) elmcan 257#BF451F0002000000
(1597242910.267758) elmcan 257#C0461F0002000000
(1597242910.288586) elmcan 257#C1471F0002000000
(1597242910.308211) elmcan 257#C2481F0002000000
(1597242910.327286) elmcan 257#C3491F0002000000
(1597242910.346979) elmcan 257#C44A1F0002000000
(1597242910.366817) elmcan 257#C54B1F0002000000
(1597242910.390290) elmcan 257#C64C1F0002000000
(1597242910.407568) elmcan 257#C74D1F0002000000
(1597242910.426769) elmcan 257#C84E1F0002000000
(1597242910.447132) elmcan 257#C94F1F0002000000
(1597242910.466970) elmcan 257#BA401F0002000000
(1597242910.486921) elmcan 257#BB411F0002000000
(1597242910.511657) elmcan 257#BC421F0002000000
(1597242910.531641) elmcan 257#BD431F0002000000
(1597242910.553846) elmcan 257#BE441F0002000000
(1597242910.571985) elmcan 257#BF451F0002000000
(1597242910.594982) elmcan 257#C0461F0002000000
(1597242910.609814) elmcan 257#C1471F0002000000
(1597242910.627035) elmcan 257#C2481F0002000000
(1597242910.647111) elmcan 257#C3491F0002000000
(1597242910.667178) elmcan 257#C44A1F0002000000
(1597242910.686914) elmcan 257#C54B1F0002000000
(1597242910.706678) elmcan 257#C64C1F0002000000
(1597242910.726940) elmcan 257#C74D1F0002000000
(1597242910.747390) elmcan 257#C84E1F0002000000
(1597242910.767384) elmcan 257#C94F1F0002000000
(1597242910.786944) elmcan 257#BA401F0002000000
(1597242910.810573) elmcan 257#BB411F0002000000
(1597242910.828403) elmcan 257#BC421F0002000000
(1597242910.847124) elmcan 257#BD431F0002000000
(1597242910.867296) elmcan 257#BE441F0002000000
(1597242910.888414) elmcan 257#BF451F0002000000
(1597242910.906800) elmcan 257#C0461F0002000000
(1597242910.926674) elmcan 257#C1471F0002000000
(1597242910.947936) elmcan 257#C2481F0002000000
(1597242910.968077) elmcan 257#C3491F0002000000
(1597242910.986740) elmcan 257#C44A1F0002000000
(1597242911.009340) elmcan 257#C54B1F0002000000
(1597242911.027166) elmcan 257#C64C1F0002000000
(1597242911.047118) elmcan 257#C74D1F0002000000
(1597242911.066594) elmcan 257#C84E1F0002000000
(1597242911.086582) elmcan 257#C94F1F0002000000
(1597242911.106533) elmcan 257#BA401F0002000000
(1597242911.126613) elmcan 257#BB411F0002000000
(1597242911.147310) elmcan 257#BC421F0002000000
(1597242911.166985) elmcan 257#BD431F0002000000
(1597242911.186802) elmcan 257#BE441F0002000000
(1597242911.209811) elmcan 257#BF451F0002000000
(1597242911.226716) elmcan 257#C0461F0002000000
(1597242911.246554) elmcan 257#C1471F0002000000
(1597242911.266733) elmcan 257#C2481F0002000000
(1597242911.286629) elmcan 257#C3491F0002000000
(1597242911.315298) elmcan 257#C44A1F0002000000
(1597242911.331160) elmcan 257#C54B1F0002000000
(1597242911.353340) elmcan 257#C64C1F0002000000
(1597242911.371863) elmcan 257#C74D1F0002000000
(1597242911.390667) elmcan 257#C84E1F0002000000
(1597242911.410913) elmcan 257#C94F1F0002000000
(1597242911.427080) elmcan 257#BA401F0002000000
(1597242911.447652) elmcan 257#BB411F0002000000
(1597242911.467665) elmcan 257#BC421F0002000000
(1597242911.487395) elmcan 257#BD431F0002000000
(1597242911.506912) elmcan 257#BE441F0002000000
(1597242911.526900) elmcan 257#BF451F0002000000
(1597242911.547176) elmcan 257#C0461F0002000000
(1597242911.566684) elmcan 257#C1471F0002000000
(1597242911.586931) elmcan 257#C2481F0002000000
(1597242911.609539) elmcan 257#C3491F0002000000
(1597242911.628583) elmcan 257#C44A1F0002000000
(1597242911.647182) elmcan 257#C54B1F0002000000
(1597242911.667656) elmcan 257#C64C1F0002000000
(1597242911.686920) elmcan 257#C74D1F0002000000
(1597242911.707004) elmcan 257#C84E1F0002000000
(1597242911.726924) elmcan 257#C94F1F0002000000
(1597242911.746960) elmcan 257#BA401F0002000000
(1597242911.766974) elmcan 257#BB411F0002000000
(1597242911.787281) elmcan 257#BC421F0002000000
(1597242911.806762) elmcan 257#BD431F0002000000
(1597242911.827501) elmcan 257#BE441F0002000000
(1597242911.847168) elmcan 257#BF451F0002000000
(1597242911.867326) elmcan 257#C0461F0002000000
(1597242911.886984) elmcan 257#C1471F0002000000
(1597242911.907440) elmcan 257#C2481F0002000000
(1597242911.926772) elmcan 257#C3491F0002000000
(1597242911.946895) elmcan 257#C44A1F0002000000
(1597242911.966872) elmcan 257#C54B1F0002000000
(1597242911.986851) elmcan 257#C64C1F0002000000
(1597242912.007458) elmcan 257#C74D1F0002000000
(1597242912.027487) elmcan 257#C84E1F0002000000
(1597242912.047431) elmcan 257#C94F1F0002000000
(1597242912.066651) elmcan 257#BA401F0002000000
(1597242912.086758) elmcan 257#BB411F0002000000
(1597242912.107058) elmcan 257#BC421F0002000000
(1597242912.131466) elmcan 257#BD431F0002000000
(1597242912.151687) elmcan 257#BE441F0002000000
(1597242912.171720) elmcan 257#BF451F0002000000
(1597242912.191578) elmcan 257#C0461F0002000000
(1597242912.214086) elmcan 257#C1471F0002000000
(1597242912.227728) elmcan 257#C2481F0002000000
(1597242912.247439) elmcan 257#C3491F0002000000
(1597242912.267025) elmcan 257#C44A1F0002000000
(1597242912.287275) elmcan 257#C54B1F0002000000
(1597242912.306676) elmcan 257#C64C1F0002000000
(1597242912.327241) elmcan 257#C74D1F0002000000
(1597242912.346950) elmcan 257#C84E1F0002000000
(1597242912.366777) elmcan 257#C94F1F0002000000
(1597242912.386693) elmcan 257#BA401F0002000000
(1597242912.407286) elmcan 257#BB411F0002000000
(1597242912.429180) elmcan 257#BC421F0002000000
(1597242912.447721) elmcan 257#BD431F0002000000
(1597242912.466934) elmcan 257#BE441F0002000000
(1597242912.487368) elmcan 257#BF451F0002000000
(1597242912.506466) elmcan 257#C0461F0002000000
(1597242912.526885) elmcan 257#C1471F0002000000
(1597242912.546959) elmcan 257#C2481F0002000000
(1597242912.566601) elmcan 257#C3491F0002000000
(1597242912.586743) elmcan 257#C44A1F0002000000
(1597242912.606582) elmcan 257#C54B1F0002000000
(1597242912.628785) elmcan 257#C64C1F0002000000
(1597242912.647296) elmcan 257#C74D1F0002000000
(1597242912.668126) elmcan 257#C84E1F0002000000
(1597242912.686768) elmcan 257#C94F1F0002000000
(1597242912.706454) elmcan 257#BA401F0002000000
(1597242912.726475) elmcan 257#BB411F0002000000
(1597242912.747388) elmcan 257#BC421F0002000000
(1597242912.767176) elmcan 257#BD431F0002000000
(1597242912.787299) elmcan 257#BE441F0002000000
(1597242912.807089) elmcan 257#BF451F0002000000
(1597242912.826785) elmcan 257#C0461F0002000000
(1597242912.848533) elmcan 257#C1471F0002000000
(1597242912.868216) elmcan 257#C2481F0002000000
(1597242912.886853) elmcan 257#C3491F0002000000
(1597242912.907946) elmcan 257#C44A1F0002000000
(1597242912.931097) elmcan 257#C54B1F0002000000
(1597242912.951712) elmcan 257#C64C1F0002000000
(1597242912.971372) elmcan 257#C74D1F0002000000
(1597242912.993173) elmcan 257#C84E1F0002000000
(1597242913.011116) elmcan 257#C94F1F0002000000
(1597242913.028284) elmcan 257#BA401F0002000000
(1597242913.049143) elmcan 257#BB411F0002000000
(1597242913.067315) elmcan 257#BC421F0002000000
