(1638973128.991705) elmcan 287#61596965EB021210
(1638973129.089896) elmcan 287#61596965EB021310
(1638973129.191347) elmcan 287#61596965EB021210
(1638973129.289896) elmcan 287#61596965EB021210
(1638973129.393948) elmcan 287#61596965EB021210
(1638973129.487415) elmcan 287#61596965EB021210
(1638973129.587231) elmcan 287#61596965EB021210
(1638973129.701222) elmcan 287#61596965EB021210
(1638973129.793169) elmcan 287#61596965EB021210
(1638973129.889684) elmcan 287#61596965EB021210
(1638973129.987290) elmcan 287#61596965EB021210
(1638973130.087064) elmcan 287#61596965EB021210
(1638973130.192064) elmcan 287#61596965EB021210
(1638973130.293830) elmcan 287#61596965EC021210
(1638973130.392825) elmcan 287#61596965EB021210
(1638973130.492502) elmcan 287#61596965EB021210
(1638973130.596060) elmcan 287#61596965EB021310
(1638973130.730787) elmcan 287#61596965EB02120F
(1638973130.794596) elmcan 287#61596965EB021210
(1638973130.895280) elmcan 287#61596965EB021310
(1638973130.993136) elmcan 287#61596965EB02130F
(1638973131.093964) elmcan 287#61596965EB02120F
(1638973131.195563) elmcan 287#61596965EB02120F
(1638973131.301477) elmcan 287#61596965EB02120F
(1638973131.392397) elmcan 287#61596965EB02130F
(1638973131.487748) elmcan 287#61596965EB021310
(1638973131.592510) elmcan 287#61596965EB02130F
(1638973131.713715) elmcan 287#61596965EB02130F
(1638973131.789828) elmcan 287#61596965EB02130F
(1638973131.889774) elmcan 287#61596965EB02130F
(1638973131.985889) elmcan 287#61596965EB021310
(1638973132.091813) elmcan 287#61596965EB021310
(1638973132.191979) elmcan 287#61596965EB02130F
(1638973132.290500) elmcan 287#61596965EB02120F
(1638973132.390928) elmcan 287#61596965EB021310
(1638973132.489919) elmcan 287#61596965EB02120F
(1638973132.704400) elmcan 287#61596965EC021210
(1638973132.788553) elmcan 287#61596965EB02130F
(1638973132.887084) elmcan 287#61596965EB021310
(1638973132.988767) elmcan 287#61596965EB021310
(1638973133.089049) elmcan 287#61596965EC02120F
(1638973133.192582) elmcan 287#61596965EB021210
(1638973133.290454) elmcan 287#61596965EC02120F
(1638973133.395293) elmcan 287#61596965EB02130F
(1638973133.488612) elmcan 287#61596965EB021310
(1638973133.595415) elmcan 287#61596965EC021310
(1638973133.706526) elmcan 287#61596965EB021210
(1638973133.793768) elmcan 287#61596965EB02120F
(1638973133.891886) elmcan 287#61596965EB021310
(1638973133.996392) elmcan 287#61596965EC02130F
(1638973134.094828) elmcan 287#61596965EB021310
(1638973134.191876) elmcan 287#61596965EB021310
(1638973134.297048) elmcan 287#61596965EB021310
(1638973134.394513) elmcan 287#61596965EB021310
(1638973134.495989) elmcan 287#61596965EB021310
(1638973134.595772) elmcan 287#61596965EB021310
(1638973134.709214) elmcan 287#61596965EB021310
(1638973134.795615) elmcan 287#61596965EB021310
(1638973134.890718) elmcan 287#61596965EB021310
(1638973134.993516) elmcan 287#61596965EB021310
(1638973135.085857) elmcan 287#61596965EB021310
(1638973135.189987) elmcan 287#61596965EB021310
(1638973135.291559) elmcan 287#61596965EB021310
(1638973135.391362) elmcan 287#61596965EB021310
(1638973135.490710) elmcan 287#61596965EB021311
(1638973135.596065) elmcan 287#61596965EB021311
(1638973135.713662) elmcan 287#61596965EB021310
(1638973135.791945) elmcan 287#61596965EB021311
(1638973135.894620) elmcan 287#61596965EB021311
(1638973135.991369) elmcan 287#61596965EB021311
(1638973136.092315) elmcan 287#61596965EB021310
(1638973136.194452) elmcan 287#61596965EB021310
(1638973136.297202) elmcan 287#61596965EB021310
(1638973136.395819) elmcan 287#61596965EB021311
(1638973136.491928) elmcan 287#61596965EB021311
(1638973136.597240) elmcan 287#61596965EB021311
(1638973136.710296) elmcan 287#61596965EB021311
(1638973136.797689) elmcan 287#61596965EB021311
(1638973136.897956) elmcan 287#61596965EB021311
(1638973136.992831) elmcan 287#61596965EB021311
(1638973137.100484) elmcan 287#61596965EB021312
(1638973137.204792) elmcan 287#61596965EB021312
(1638973137.300872) elmcan 287#61596965EB021311
(1638973137.396728) elmcan 287#61596965EB021311
(1638973137.497029) elmcan 287#61596965EB021311
(1638973137.603285) elmcan 287#61596965EB021312
(1638973137.706898) elmcan 287#61596965EB021311
(1638973137.801059) elmcan 287#61596965EB021311
(1638973137.901198) elmcan 287#61596965EB021311
(1638973138.002323) elmcan 287#61596965EB021312
(1638973138.098808) elmcan 287#61596965EB021312
(1638973138.209704) elmcan 287#61596965EB021312
(1638973138.303453) elmcan 287#61596965EB021311
(1638973138.409881) elmcan 287#61596965EB021311
(1638973138.501583) elmcan 287#61596965EB021311
(1638973138.607622) elmcan 287#61596966EB021312
(1638973138.721919) elmcan 287#61596966EB021312
(1638973138.812993) elmcan 287#61596966EB021312
(1638973138.910558) elmcan 287#61596966EB021312
(1638973139.011677) elmcan 287#61596966EB021311
(1638973139.113740) elmcan 287#62596966EB021311
(1638973139.219148) elmcan 287#62596966EB021312
(1638973139.317588) elmcan 287#62596966EB021312
(1638973139.421433) elmcan 287#62596966EB021312
(1638973139.512048) elmcan 287#62596966EB021312
(1638973139.616482) elmcan 287#62596966EB021312
(1638973139.729524) elmcan 287#62596966EB021312
(1638973139.822935) elmcan 287#62596966EB021313
(1638973139.914807) elmcan 287#62596966EB021313
(1638973140.017041) elmcan 287#62596966EB021212
(1638973140.122906) elmcan 287#62596966EB021312
(1638973140.221778) elmcan 287#62596966EB021212
(1638973140.326683) elmcan 287#62596966EB021312
(1638973140.433451) elmcan 287#62596966EB021213
(1638973140.526615) elmcan 287#62596966EB021313
(1638973140.630453) elmcan 287#62596966EB021312
(1638973140.743537) elmcan 287#62596966EB021213
(1638973140.835424) elmcan 287#62596966EB021313
(1638973141.035730) elmcan 287#62596966EB021313
(1638973141.138106) elmcan 287#62596966EB021213
(1638973141.236759) elmcan 287#62596966EB021213
(1638973141.341177) elmcan 287#62596966EB021312
(1638973141.540960) elmcan 287#62596966EB021212
(1638973141.742258) elmcan 287#62596966EB021211
(1638973141.841050) elmcan 287#62596966EB021311
(1638973142.246133) elmcan 287#62596966EB021310
(1638973142.442756) elmcan 287#62596966EB021310
(1638973142.543323) elmcan 287#62596966EB021211
(1638973142.643869) elmcan 287#62596966EB021211
(1638973142.745029) elmcan 287#62596966EB021210
(1638973142.845307) elmcan 287#62596966EB02130F
(1638973142.942686) elmcan 287#62596966EB02130F
(1638973143.044455) elmcan 287#62596966EC021310
(1638973143.144187) elmcan 287#62596966EB021211
(1638973143.241636) elmcan 287#62596966EB021210
(1638973143.345442) elmcan 287#62596966EB021210
(1638973143.446875) elmcan 287#62596966EB021310
(1638973143.541994) elmcan 287#62596966EB021310
(1638973143.646564) elmcan 287#62596966EB021310
(1638973143.747756) elmcan 287#62596966EB021210
(1638973143.843271) elmcan 287#62596966EB021210
(1638973143.947688) elmcan 287#62596966EB021210
(1638973144.047865) elmcan 287#62596966EB021310
(1638973144.149153) elmcan 287#62596966EB021310
(1638973144.250305) elmcan 287#62596966EB021310
(1638973144.346323) elmcan 287#62596966EB021210
(1638973144.449789) elmcan 287#62596966EB021211
(1638973144.545988) elmcan 287#62596966EB021211
(1638973144.651311) elmcan 287#62596966EB021310
(1638973144.750090) elmcan 287#62596966EB021310
(1638973144.851555) elmcan 287#62596966EB021210
(1638973144.948819) elmcan 287#62596966EB021211
(1638973145.047533) elmcan 287#62596966EB021211
(1638973145.142917) elmcan 287#62596966EB021211
(1638973145.249631) elmcan 287#62596966EB021211
(1638973145.347223) elmcan 287#62596966EB021110
(1638973145.446339) elmcan 287#62596966EB021210
(1638973145.545790) elmcan 287#62596966EB021211
(1638973145.654514) elmcan 287#62596966EB021211
(1638973145.846923) elmcan 287#62596966EB021110
(1638973145.948540) elmcan 287#62596966EB021211
(1638973146.045647) elmcan 287#62596966EB021210
(1638973146.146510) elmcan 287#62596966EB021211
(1638973146.250131) elmcan 287#62596966EB021211
(1638973146.345359) elmcan 287#62596966EB021210
(1638973146.446882) elmcan 287#62596966EB021210
(1638973146.545397) elmcan 287#62596966EB021210
(1638973146.646010) elmcan 287#62596966EB021210
(1638973146.744597) elmcan 287#62596966EB02120F
(1638973146.843395) elmcan 287#62596966EB02120F
(1638973146.941262) elmcan 287#62596966EB02120F
(1638973147.043167) elmcan 287#62596966EB021210
(1638973147.139104) elmcan 287#62596966EB021210
(1638973147.342663) elmcan 287#62596966EB021210
(1638973147.444174) elmcan 287#62596966EB02110F
(1638973147.543040) elmcan 287#62596966EB02110E
(1638973147.743307) elmcan 287#62596966EB02100D
(1638973147.847459) elmcan 287#62596966EB02120E
(1638973148.046502) elmcan 287#62596966EB02110E
(1638973148.140064) elmcan 287#62596966EB02110E
(1638973148.341760) elmcan 287#62596966EB02100D
(1638973148.437156) elmcan 287#62596966EC02100E
(1638973148.534442) elmcan 287#62596966EC02100D
(1638973148.640483) elmcan 287#62596966EB02100D
(1638973148.743415) elmcan 287#62596966EC02100C
(1638973148.844068) elmcan 287#62596966EC02100D
(1638973148.945430) elmcan 287#62596966EC02100D
(1638973149.144202) elmcan 287#62596966EC02100D
(1638973149.247277) elmcan 287#62596A66EC02100D
(1638973149.344989) elmcan 287#62596A66EC02100D
(1638973149.447950) elmcan 287#62596A66EC02100D
(1638973149.550128) elmcan 287#62596A66EC02100D
(1638973149.649765) elmcan 287#62596A66EC020F0D
(1638973149.750067) elmcan 287#62596A66EC020F0E
(1638973149.849839) elmcan 287#62596A66EC020F0E
(1638973149.953328) elmcan 287#62596A66EC02100D
(1638973150.056061) elmcan 287#62596A66EC02100D
(1638973150.153550) elmcan 287#62596A66EC02100D
(1638973150.253141) elmcan 287#62596A66EC02100E
(1638973150.351653) elmcan 287#62596A66EC020F0E
(1638973150.452916) elmcan 287#62596A66EC020D0E
(1638973150.549958) elmcan 287#62596A66EC020A0D
(1638973150.657415) elmcan 287#62596A66EC02090D
(1638973150.754114) elmcan 287#62596A66EC020A0D
(1638973150.857428) elmcan 287#62596A66EC020A0E
(1638973150.955446) elmcan 287#62596A66EC020A0E
(1638973151.059956) elmcan 287#62596A66EC020A0E
(1638973151.157124) elmcan 287#62596A66EC020A0D
(1638973151.257874) elmcan 287#62596A66EC020A0D
(1638973151.359510) elmcan 287#62596A66EC02090D
(1638973151.457391) elmcan 287#62596A66EC02090E
(1638973151.555723) elmcan 287#62596A66EC02080E
(1638973151.654754) elmcan 287#62596A66EC02090F
(1638973151.859752) elmcan 287#62596A66EC02090E
(1638973151.959446) elmcan 287#62596A66EC02090E
(1638973152.059559) elmcan 287#62596A66EC02090E
(1638973152.161623) elmcan 287#62596A66EC02080F
(1638973152.268809) elmcan 287#62596A66EC02080F
(1638973152.363049) elmcan 287#62596A66EC02080F
(1638973152.465754) elmcan 287#62596A66EC02080E
(1638973152.567460) elmcan 287#62596A66EC02080D
(1638973152.660806) elmcan 287#62596A66EC02080F
(1638973152.769971) elmcan 287#62596A66EC02080E
(1638973152.867776) elmcan 287#62596A66EC02080E
(1638973152.966635) elmcan 287#62596A66EC02080F
(1638973153.070771) elmcan 287#62596A66EC02080E
(1638973153.170282) elmcan 287#62596A66EC02080E
(1638973153.271992) elmcan 287#62596A66EC02080E
(1638973153.372932) elmcan 287#62596A66EC02070F
(1638973153.469770) elmcan 287#62596A66EC02070F
(1638973153.567470) elmcan 287#62596A66EC02070F
(1638973153.670832) elmcan 287#62596A66ED02070F
(1638973153.771803) elmcan 287#62596A66EC02070F
(1638973153.869939) elmcan 287#62596A66EC02070E
(1638973153.970077) elmcan 287#62596A66EC02070F
(1638973154.068981) elmcan 287#62596A66EC02070F
(1638973154.169550) elmcan 287#62596A66EC02070F
(1638973154.266449) elmcan 287#62596A66EC02070F
(1638973154.369974) elmcan 287#62596A66EC02060F
(1638973154.467035) elmcan 287#62596A66ED02050E
(1638973154.564824) elmcan 287#62596A66EC02060F
(1638973154.662352) elmcan 287#62596A66EC02060F
(1638973154.769262) elmcan 287#62596A66EC02060F
(1638973154.866648) elmcan 287#62596A66ED02060F
(1638973154.965097) elmcan 287#62596A66ED02060E
(1638973155.066482) elmcan 287#62596A66ED02060E
(1638973155.169206) elmcan 287#62596A66ED02060F
(1638973155.264495) elmcan 287#62596A66ED020610
(1638973155.363643) elmcan 287#62596A66ED02050F
(1638973155.465759) elmcan 287#62596A66ED02050F
(1638973155.563255) elmcan 287#62596A66ED02050F
(1638973155.662734) elmcan 287#62596A66ED02050F
(1638973155.768265) elmcan 287#62596A66ED02050F
(1638973155.861569) elmcan 287#62596A66ED02050F
(1638973155.957259) elmcan 287#62596A66ED02050F
(1638973156.064061) elmcan 287#62596A66ED02050F
(1638973156.165160) elmcan 287#62596A66ED02050F
(1638973156.263529) elmcan 287#62596A66ED020510
(1638973156.364327) elmcan 287#62596A66ED020510
(1638973156.463991) elmcan 287#62596A66ED020610
(1638973156.564441) elmcan 287#62596A66ED020510
(1638973156.661483) elmcan 287#62596A66ED020610
(1638973156.763804) elmcan 287#62596A66ED020610
(1638973156.864472) elmcan 287#62596A66ED020510
(1638973156.962445) elmcan 287#62596A66ED020610
(1638973157.062177) elmcan 287#62596A66ED020610
(1638973157.161599) elmcan 287#62596A66ED020611
(1638973157.260290) elmcan 287#62596A66ED020510
(1638973157.360496) elmcan 287#625A6A66ED02050F
(1638973157.462420) elmcan 287#625A6A66ED020411
(1638973157.558128) elmcan 287#625A6A66ED020510
(1638973157.660126) elmcan 287#625A6A66ED020610
(1638973157.755980) elmcan 287#625A6A66ED020511
(1638973157.859275) elmcan 287#625A6A66ED020510
(1638973157.956422) elmcan 287#625A6A66ED020510
(1638973158.053824) elmcan 287#625A6A66ED020511
(1638973158.156373) elmcan 287#625A6A66ED020511
(1638973158.258536) elmcan 287#625A6A66ED020511
(1638973158.352799) elmcan 287#625A6A66ED020511
(1638973158.457718) elmcan 287#625A6A66ED020511
(1638973158.553282) elmcan 287#625A6A66ED020511
(1638973158.655693) elmcan 287#625A6A66EC020611
(1638973158.754126) elmcan 287#625A6A66EC020611
(1638973158.855310) elmcan 287#625A6A66ED020611
(1638973158.955398) elmcan 287#625A6A66ED020511
(1638973159.054465) elmcan 287#625A6A66ED020511
(1638973159.150640) elmcan 287#625A6A66ED020511
(1638973159.257353) elmcan 287#625A6A66ED020611
(1638973159.354359) elmcan 287#625A6A66EC020612
(1638973159.458250) elmcan 287#625A6A66ED020612
(1638973159.543917) elmcan 287#625A6A66ED020511
(1638973159.653973) elmcan 287#625A6A66ED020611
(1638973159.786450) elmcan 287#625A6A66ED020611
(1638973159.853165) elmcan 287#625A6A66ED020611
(1638973159.954609) elmcan 287#625A6A66EC020611
(1638973160.048821) elmcan 287#625A6A66EC020611
(1638973160.153294) elmcan 287#625A6A66EC020711
(1638973160.259046) elmcan 287#625A6A66EC020711
(1638973160.356469) elmcan 287#625A6A66EC020712
(1638973160.462224) elmcan 287#625A6A66EC020711
(1638973160.556765) elmcan 287#625A6A66EC020712
(1638973160.659714) elmcan 287#625A6A66EC020712
(1638973160.763774) elmcan 287#625A6A66EC020711
(1638973160.856175) elmcan 287#625A6A66EC020811
(1638973160.960760) elmcan 287#625A6A66EC020811
(1638973161.061402) elmcan 287#625A6A66EC020711
(1638973161.158231) elmcan 287#625A6A66EC020812
(1638973161.259916) elmcan 287#625A6A66EC020712
(1638973161.357074) elmcan 287#625A6A66EC020811
(1638973161.461119) elmcan 287#625A6A66EC020811
(1638973161.560097) elmcan 287#625A6A66EC020812
(1638973161.657769) elmcan 287#625A6A66EC020812
(1638973161.759048) elmcan 287#625A6A66EC020911
(1638973161.857966) elmcan 287#625A6A66EC020811
(1638973161.957891) elmcan 287#625A6A66EC020810
(1638973162.057578) elmcan 287#625A6A66EC020711
(1638973162.157795) elmcan 287#625A6A66EC020710
(1638973162.261312) elmcan 287#625A6A66ED02070F
(1638973162.354616) elmcan 287#625A6A66ED020610
(1638973162.465706) elmcan 287#625A6A66ED02040E
(1638973162.563972) elmcan 287#625A6A66ED02030E
(1638973162.664560) elmcan 287#625A6A66ED02020E
(1638973162.770080) elmcan 287#625A6A66ED02010E
(1638973162.868514) elmcan 287#625A6A66ED02000D
(1638973163.073992) elmcan 287#625A6A66ED02010C
(1638973163.168992) elmcan 287#625A6A66ED02010C
(1638973163.267965) elmcan 287#625A6A66EE02010C
(1638973163.369676) elmcan 287#625A6A66ED02000B
(1638973163.465687) elmcan 287#625A6A66EE02000A
(1638973163.566324) elmcan 287#625A6A66EE02000B
(1638973163.661609) elmcan 287#625A6A66EE020009
(1638973163.767898) elmcan 287#625A6A66EE02000A
(1638973163.866867) elmcan 287#625A6A66EE020009
(1638973163.967131) elmcan 287#625A6A66EE020009
(1638973164.067971) elmcan 287#625A6A66EE020008
(1638973164.163131) elmcan 287#625A6A66EE020008
(1638973164.262962) elmcan 287#625A6A66EE020008
(1638973164.362557) elmcan 287#625A6A66EE020008
(1638973164.461961) elmcan 287#625A6A66EE020308
(1638973164.561423) elmcan 287#625A6A66EE020008
(1638973164.659674) elmcan 287#625A6A66EE020008
(1638973164.766515) elmcan 287#625A6A66EE020108
(1638973164.871653) elmcan 287#625A6A66EE020108
(1638973164.972925) elmcan 287#625A6A66EE020109
(1638973165.076506) elmcan 287#625A6A66EE020108
(1638973165.273488) elmcan 287#625A6A66EE020109
(1638973165.377883) elmcan 287#625A6A66EE020109
(1638973165.477490) elmcan 287#625A6A66EE020109
(1638973165.579267) elmcan 287#625A6A66EE020209
(1638973165.676070) elmcan 287#625A6A66EE020209
(1638973165.779301) elmcan 287#625A6A66EE020209
(1638973165.877445) elmcan 287#625A6A66EE020109
(1638973165.975837) elmcan 287#625A6A66EE020209
(1638973166.074928) elmcan 287#625A6A66EE020309
(1638973166.178427) elmcan 287#625A6A66EE020309
(1638973166.291395) elmcan 287#625A6A66EE020209
(1638973166.379361) elmcan 287#625A6A66EE020308
(1638973166.484095) elmcan 287#625A6A66EE020308
(1638973166.580005) elmcan 287#625A6A66EE020309
(1638973166.683377) elmcan 287#625A6A66EE020309
(1638973166.787379) elmcan 287#625A6A66EE020308
(1638973166.885921) elmcan 287#625A6A66EE020408
(1638973166.985496) elmcan 287#625A6A66EE020408
(1638973167.085560) elmcan 287#625A6A66EE020408
(1638973167.188924) elmcan 287#625A6A66EE020409
(1638973167.287661) elmcan 287#625A6A66EE020408
(1638973167.390197) elmcan 287#625A6A66ED02040C
(1638973167.489168) elmcan 287#625A6A66EE020408
(1638973167.595269) elmcan 287#625A6A66EE020408
(1638973167.701263) elmcan 287#625A6A66EE020508
(1638973167.796859) elmcan 287#625A6A66EE020508
(1638973167.895186) elmcan 287#625A6A66EE020508
(1638973167.994065) elmcan 287#625A6A66EE020508
(1638973168.093107) elmcan 287#625A6A66EE020508
(1638973168.198490) elmcan 287#625A6A66EE020508
(1638973168.298589) elmcan 287#625A6A66ED020508
(1638973168.402812) elmcan 287#625A6A66ED020607
(1638973168.497584) elmcan 287#625A6A66ED020607
(1638973168.602048) elmcan 287#625A6A66ED020608
(1638973168.710929) elmcan 287#625A6A66ED020607
(1638973168.804009) elmcan 287#625A6A66ED020607
(1638973168.899212) elmcan 287#625A6A66ED020608
(1638973168.999922) elmcan 287#625A6A66ED020607
(1638973169.101200) elmcan 287#625A6A66ED020607
(1638973169.208377) elmcan 287#625A6A66ED020607
(1638973169.307959) elmcan 287#625A6A66ED020607
(1638973169.407680) elmcan 287#625A6A66ED020607
(1638973169.501419) elmcan 287#625A6A66ED020707
(1638973169.611030) elmcan 287#625A6A66ED020707
(1638973169.722559) elmcan 287#625A6A66ED020707
(1638973169.807463) elmcan 287#625A6A66ED020707
(1638973169.903171) elmcan 287#625A6A66ED020807
(1638973170.005770) elmcan 287#625A6A66ED020707
(1638973170.107590) elmcan 287#625A6A66ED020807
(1638973170.212949) elmcan 287#625A6A66ED020807
(1638973170.312310) elmcan 287#625A6A66ED020807
(1638973170.413325) elmcan 287#625A6A66ED020807
(1638973170.507584) elmcan 287#625A6A66ED020906
(1638973170.613551) elmcan 287#625A6A66ED020906
(1638973170.730020) elmcan 287#625A6A66ED020807
(1638973170.814660) elmcan 287#625A6A66ED020906
(1638973170.908633) elmcan 287#625A6966ED020906
(1638973171.008598) elmcan 287#625A6966ED020907
(1638973171.106636) elmcan 287#625A6966ED020906
(1638973171.210882) elmcan 287#625A6966ED020906
(1638973171.309742) elmcan 287#625A6966ED020907
(1638973171.415278) elmcan 287#625A6966ED020A07
(1638973171.508114) elmcan 287#625A6966ED020A07
(1638973171.614051) elmcan 287#625A6966ED020907
(1638973171.731749) elmcan 287#625A6966ED020A07
(1638973171.820030) elmcan 287#625A6966ED020A07
(1638973171.912786) elmcan 287#625A6966ED020A07
(1638973172.014719) elmcan 287#625A6966ED020A07
(1638973172.116897) elmcan 287#625A6966ED020A07
(1638973172.223990) elmcan 287#625A6966ED020B07
(1638973172.322866) elmcan 287#625A6966ED020B07
(1638973172.424932) elmcan 287#625A6966ED020B07
(1638973172.521549) elmcan 287#625A6966ED020B07
(1638973172.630698) elmcan 287#625A6966ED020B07
(1638973172.830076) elmcan 287#625A6966ED020B07
(1638973172.933532) elmcan 287#625A6966ED020B07
(1638973173.034140) elmcan 287#625A6966ED020B07
(1638973173.133001) elmcan 287#625A6966ED020C07
(1638973173.239588) elmcan 287#625A6966ED020C07
(1638973173.538005) elmcan 287#625A6966ED020C07
(1638973173.640928) elmcan 287#625A6966ED020C07
(1638973173.744967) elmcan 287#625A6966ED020D07
(1638973173.843693) elmcan 287#625A6966ED020D07
(1638973173.945665) elmcan 287#625A6966ED020C07
(1638973174.043361) elmcan 287#625A6966ED020D07
(1638973174.142671) elmcan 287#625A6966ED020D07
(1638973174.250541) elmcan 287#625A6966ED020D07
(1638973174.349479) elmcan 287#625A6966ED020D07
(1638973174.445614) elmcan 287#625A6966ED020D08
(1638973174.539838) elmcan 287#625A6966ED020B07
(1638973174.647449) elmcan 287#625A6966ED020E08
(1638973174.754986) elmcan 287#625A6966ED020E07
(1638973174.851434) elmcan 287#625A6966ED020E07
(1638973174.954531) elmcan 287#625A6966ED020E08
(1638973175.057236) elmcan 287#625A6966ED020E07
(1638973175.159262) elmcan 287#625A6966ED020E07
(1638973175.265952) elmcan 287#615A6966ED020E08
(1638973175.356843) elmcan 287#615A6966EC020F08
(1638973175.456316) elmcan 287#615A6966ED020F08
(1638973175.556602) elmcan 287#615A6966ED020F08
(1638973175.661862) elmcan 287#615A6966ED020E07
(1638973175.768075) elmcan 287#615A6966ED020E08
(1638973175.867742) elmcan 287#615A6966ED020F08
(1638973175.965662) elmcan 287#615A6966ED020F08
(1638973176.066886) elmcan 287#615A6966ED020E09
(1638973176.163452) elmcan 287#615A6966ED020F08
(1638973176.266886) elmcan 287#615A6966EC020F09
(1638973176.368863) elmcan 287#615A6966ED020E08
(1638973176.467688) elmcan 287#615A6966EC020F09
(1638973176.570306) elmcan 287#615A6966EC020F09
(1638973176.665595) elmcan 287#615A6966EC020F09
(1638973176.772564) elmcan 287#615A6966EC020F0A
(1638973176.869356) elmcan 287#615A6966EC020F09
(1638973176.972340) elmcan 287#615A6966EC020F09
(1638973177.069758) elmcan 287#615A6966ED020F09
(1638973177.175935) elmcan 287#615A6966EC020F0A
(1638973177.275786) elmcan 287#615A6966ED020F0A
(1638973177.375095) elmcan 287#615A6966ED020E0A
(1638973177.474423) elmcan 287#615A6966ED020F09
(1638973177.572848) elmcan 287#615A6966ED020F09
(1638973177.673852) elmcan 287#615A6966ED020F0A
(1638973177.776342) elmcan 287#615A6966ED020F0A
(1638973177.870655) elmcan 287#615A6966ED020F0A
(1638973177.973397) elmcan 287#615A6966ED020E0A
(1638973178.076692) elmcan 287#615A6966ED020F0A
(1638973178.182058) elmcan 287#615A6966EC020F0A
(1638973178.275929) elmcan 287#615A6966EC020F0A
(1638973178.379926) elmcan 287#615A6966EC020F0A
(1638973178.475418) elmcan 287#615A6966EC020F0A
(1638973178.574748) elmcan 287#615A6966EC020F0A
(1638973178.673770) elmcan 287#615A6966EC020F0A
(1638973178.777886) elmcan 287#615A6966EC020F0B
(1638973178.873702) elmcan 287#615A6966EC020E0B
(1638973178.977452) elmcan 287#615A6966EC020F0A
(1638973179.081508) elmcan 287#615A6966EC020F0B
(1638973179.182816) elmcan 287#615A6966EC020E0B
(1638973179.283860) elmcan 287#615A6966EC020F0B
(1638973179.383314) elmcan 287#615A6966EC020F0B
(1638973179.484030) elmcan 287#615A6966EC020E0B
(1638973179.590685) elmcan 287#615A6966EC020F0B
(1638973179.685038) elmcan 287#615A6966EC020E0C
(1638973179.785999) elmcan 287#615A6966EC020F0C
(1638973179.887484) elmcan 287#615A6966EC020F0B
(1638973179.985267) elmcan 287#615A6966EC020F0B
(1638973180.083976) elmcan 287#615A6966EC020E0B
(1638973180.193939) elmcan 287#615A6966EC020E0C
(1638973180.289448) elmcan 287#615A6966EC020E0C
(1638973180.388684) elmcan 287#615A6966EC020F0C
(1638973180.490499) elmcan 287#615A6966EC020F0B
(1638973180.593690) elmcan 287#615A6966EC020F0B
(1638973180.702936) elmcan 287#615A6966EC020F0C
(1638973180.793659) elmcan 287#615A6966EC020F0D
(1638973180.889940) elmcan 287#615A6966EC020F0D
(1638973180.991044) elmcan 287#615A6966EC020F0C
(1638973181.080904) elmcan 287#615A6966EC020F0C
(1638973181.190355) elmcan 287#615A6966EC020F0C
(1638973181.292046) elmcan 287#615A6966EC020F0D
(1638973181.393997) elmcan 287#615A6966EC020E0D
(1638973181.490513) elmcan 287#615A6966EC020E0D
(1638973181.594610) elmcan 287#615A6966EC020F0D
(1638973181.705189) elmcan 287#615A6966EC020E0D
(1638973181.784999) elmcan 287#615A6966EC020E0D
(1638973181.888046) elmcan 287#615A6966EC020F0C
(1638973181.989316) elmcan 287#615A6966EC020E0C
(1638973182.087053) elmcan 287#615A6966EC020F0C
(1638973182.186949) elmcan 287#615A6966EC020F0D
(1638973182.288114) elmcan 287#615A6966EC020F0D
(1638973182.386704) elmcan 287#615A6966EC020F0D
(1638973182.484871) elmcan 287#615A6966EC020F0D
(1638973182.589386) elmcan 287#615A6966EC020F0D
(1638973182.700983) elmcan 287#615A6966EC020F0D
(1638973182.787043) elmcan 287#615A6966EC020F0E
(1638973182.886584) elmcan 287#615A6966EC020F0D
(1638973182.980325) elmcan 287#615A6966EC020F0D
(1638973183.086328) elmcan 287#615A6966EC020F0E
(1638973183.188259) elmcan 287#615A6966EC020F0D
(1638973183.286367) elmcan 287#615A6966EC020E0D
(1638973183.383621) elmcan 287#615A6966EC020F0E
(1638973183.481216) elmcan 287#615A6966EC020F0D
(1638973183.582589) elmcan 287#615A6966EC020F0D
(1638973183.705869) elmcan 287#615A6966EC020F0E
(1638973183.786692) elmcan 287#615A6966EC020E0E
(1638973183.984007) elmcan 287#615A6966EC020E0E
(1638973184.079366) elmcan 287#615A6966EC020F0E
(1638973184.184252) elmcan 287#615A6966EC020F0E
(1638973184.283511) elmcan 287#615A6966EC020F0E
(1638973184.381672) elmcan 287#615A6966EC020E0E
(1638973184.482122) elmcan 287#615A6966EC020E0E
(1638973184.581405) elmcan 287#615A6966EC020F0E
(1638973184.671983) elmcan 287#615A6966EC020F0E
(1638973184.775183) elmcan 287#615A6966EC020F0E
(1638973184.873249) elmcan 287#615A6966EC020E0E
(1638973184.973203) elmcan 287#615A6966EC020E0E
(1638973185.075806) elmcan 287#615A6966EC020E0E
(1638973185.175362) elmcan 287#615A6966EC020F0E
(1638973185.280629) elmcan 287#615A6966EC020F0E
(1638973185.378366) elmcan 287#625A6966EC020F0F
(1638973185.473589) elmcan 287#625A6966EC020E0E
(1638973185.572153) elmcan 287#625A6966EC020E0E
(1638973185.667893) elmcan 287#625A6966EC020E0F
(1638973185.772495) elmcan 287#625A6966EC020F0F
(1638973185.871964) elmcan 287#625A6966EC020F0E
(1638973185.973003) elmcan 287#625A6966EC020F0E
(1638973186.073187) elmcan 287#625A6966EC020E0F
(1638973186.174321) elmcan 287#625A6966EC020E0F
(1638973186.281103) elmcan 287#625A6966EC020E0E
(1638973186.373110) elmcan 287#625A6966EC020F0E
(1638973186.466511) elmcan 287#625A6966EC020F0F
(1638973186.566684) elmcan 287#625A6966EC020F0F
(1638973186.666845) elmcan 287#625A6966EC020E0F
(1638973186.765917) elmcan 287#625A6966EC020E0F
(1638973186.869207) elmcan 287#625A6966EC020E0F
(1638973186.966694) elmcan 287#625A6966EC020F0F
(1638973187.068922) elmcan 287#625A6966EC020F0F
(1638973187.165951) elmcan 287#625A6966EC020F0F
(1638973187.268979) elmcan 287#625A6966EC020E0F
(1638973187.366423) elmcan 287#625A6966EC020E0E
(1638973187.464669) elmcan 287#625A6966EC020E0E
(1638973187.563851) elmcan 287#625A6966EC020F0E
(1638973187.665666) elmcan 287#625A6966EC020F0F
(1638973187.766494) elmcan 287#625A6966EC020F0F
(1638973187.863869) elmcan 287#625A6966EC020F0F
(1638973187.962684) elmcan 287#625A6966EC020E0E
(1638973188.065327) elmcan 287#625A6966EC020E0E
(1638973188.171790) elmcan 287#625A6966EC020F0E
(1638973188.266658) elmcan 287#625A6966EC020F0F
(1638973188.364872) elmcan 287#625A6966EC020F0E
(1638973188.463237) elmcan 287#625A6966EC020F0E
(1638973188.565016) elmcan 287#625A6966EC020E0E
(1638973188.661537) elmcan 287#625A6966EC020E0E
(1638973188.763798) elmcan 287#625A6966EC020F0E
(1638973188.862651) elmcan 287#625A6966EC020E0F
(1638973188.960544) elmcan 287#625A6966EC020F0F
(1638973189.057943) elmcan 287#625A6966EC020F0F
(1638973189.158464) elmcan 287#625A6966EC020E0E
(1638973189.257601) elmcan 287#625A6966EC020E0E
(1638973189.359452) elmcan 287#625A6966EC020F0E
(1638973189.453220) elmcan 287#625A6966EC020E0F
(1638973189.546712) elmcan 287#625A6966EC020E0F
(1638973189.656635) elmcan 287#625A6966EC020F0F
(1638973189.758184) elmcan 287#625A6966EC020E0E
(1638973189.856613) elmcan 287#625A6966EC020E0E
(1638973189.954273) elmcan 287#625A6966EC020F0E
(1638973190.054752) elmcan 287#625A6966EC020E0F
(1638973190.153577) elmcan 287#625A6966EC020E0F
(1638973190.257083) elmcan 287#625A6966EC020F0F
(1638973190.353656) elmcan 287#625A6966EC020F0E
(1638973190.479347) elmcan 287#625A6966EC020F0E
(1638973190.554267) elmcan 287#625A6966EC020F0E
(1638973190.655041) elmcan 287#625A6966EC020F0F
(1638973190.758061) elmcan 287#625A6966EC020F0F
(1638973190.853766) elmcan 287#625A6966EC020F0F
(1638973190.954408) elmcan 287#625A6966EC020F0E
(1638973191.049732) elmcan 287#625A6966EC020E0E
(1638973191.153234) elmcan 287#625A6966EC020F0E
(1638973191.253153) elmcan 287#625A6966EC020E0F
(1638973191.351589) elmcan 287#625A6966EC020E0F
(1638973191.451717) elmcan 287#625A6966EC020E0F
(1638973191.550587) elmcan 287#625A6966EC020E0E
(1638973191.648334) elmcan 287#625A6966EC020F0E
(1638973191.750190) elmcan 287#625A6966EC020F0E
(1638973191.849862) elmcan 287#625A6966EC020E0F
(1638973191.949080) elmcan 287#625A6966EC020E0F
(1638973192.047627) elmcan 287#625A6966EC020E0F
(1638973192.149101) elmcan 287#625A6966EC020F0E
(1638973192.247693) elmcan 287#625A6966EC020F0E
(1638973192.343806) elmcan 287#625A6966EC020F0E
(1638973192.547248) elmcan 287#625A6966EC020E0E
(1638973192.645838) elmcan 287#625A6966EC020E0E
(1638973192.746979) elmcan 287#625A6966EC020F0E
(1638973192.845695) elmcan 287#625A6966EC020F0E
(1638973192.943303) elmcan 287#625A6966EC020F0E
(1638973193.043763) elmcan 287#625A6966EC020E0E
(1638973193.144948) elmcan 287#625A6966EC020E0E
(1638973193.245613) elmcan 287#625A6966EC020E0E
(1638973193.347441) elmcan 287#625A6966EC020F0E
(1638973193.445934) elmcan 287#625A6966EC020E0E
(1638973193.544230) elmcan 287#625A6966EC020F0E
(1638973193.643206) elmcan 287#625A6966EC020E0E
(1638973193.741428) elmcan 287#625A6966EC020E0E
(1638973193.940827) elmcan 287#625A6966EB020E0E
(1638973194.042526) elmcan 287#625A6966EC020F0E
(1638973194.342445) elmcan 287#625A6966EC020E0E
(1638973194.542256) elmcan 287#625A6966EC020E0D
(1638973194.840962) elmcan 287#625A6966EC020E0E
(1638973194.933754) elmcan 287#625A6966EC020E0E
(1638973195.032083) elmcan 287#625A6966EC020E0E
(1638973195.135711) elmcan 287#625A6966EC020E0D
(1638973195.237811) elmcan 287#625A6966EC020E0D
(1638973195.332984) elmcan 287#625A6966EC020E0D
(1638973195.438391) elmcan 287#625A6966EC020F0D
(1638973195.532833) elmcan 287#625A6966EC020F0D
(1638973195.639239) elmcan 287#625A6966EC020E0D
(1638973195.738219) elmcan 287#625A6966EC020F0D
(1638973195.833733) elmcan 287#625A6966EC020E0D
(1638973195.940202) elmcan 287#625A6966EC020E0C
(1638973196.138266) elmcan 287#625A6966EC020E0D
(1638973196.331643) elmcan 287#625A6966EC020E0D
(1638973196.444542) elmcan 287#625A6966EC020F0D
(1638973196.539015) elmcan 287#625A6966EC020E0C
(1638973196.642996) elmcan 287#625A6966EC020E0C
(1638973197.039848) elmcan 287#625A6966EC020F0D
(1638973197.243638) elmcan 287#625A6966EC020E0C
(1638973197.343224) elmcan 287#625A6966EC020E0C
(1638973197.539545) elmcan 287#625A6966EC020F0E
(1638973197.744060) elmcan 287#625A6966EC020E0D
(1638973197.944389) elmcan 287#625A6966EC020F0C
(1638973198.147322) elmcan 287#625A6966EC020E0D
(1638973198.244092) elmcan 287#625A6966EC020E0D
(1638973198.447269) elmcan 287#625A6966EC020E0C
(1638973198.544396) elmcan 287#625A6966EC020E0C
(1638973198.646182) elmcan 287#625A6966EC020D0C
(1638973198.748347) elmcan 287#625A6966EC020E0D
(1638973198.847168) elmcan 287#625A6966EC020E0D
(1638973198.949549) elmcan 287#625A6966EC020E0D
(1638973199.049056) elmcan 287#625A6966EC020E0C
(1638973199.151356) elmcan 287#625A6966EC020E0C
(1638973199.249659) elmcan 287#625A6966EC020E0C
(1638973199.349307) elmcan 287#625A6966EC020E0D
(1638973199.448120) elmcan 287#625A6966EC020E0D
(1638973199.545814) elmcan 287#625A6966EC020E0D
(1638973199.649018) elmcan 287#625A6966EC020E0C
(1638973199.751585) elmcan 287#625A6966EC020F0C
(1638973199.849344) elmcan 287#625A6966EC020D0C
(1638973199.949792) elmcan 287#625A6966EC020E0D
(1638973200.049643) elmcan 287#625A6966EC020E0D
(1638973200.146558) elmcan 287#625A6966EC020E0D
(1638973200.252768) elmcan 287#625A6966EC020E0D
(1638973200.348168) elmcan 287#625A6966EC020E0D
(1638973200.444718) elmcan 287#625A6966EC020E0D
(1638973200.546038) elmcan 287#625A6966EC020E0D
(1638973200.651614) elmcan 287#625A6966EC020E0D
(1638973200.749555) elmcan 287#625A6966EC020F0D
(1638973200.845362) elmcan 287#625A6966EC020F0D
(1638973200.949582) elmcan 287#625A6966EC020F0D
(1638973201.043354) elmcan 287#625A6966EC020E0D
(1638973201.144615) elmcan 287#625A6966EC020E0D
(1638973201.248655) elmcan 287#625A6966EC020E0D
(1638973201.346944) elmcan 287#625A6966EC020F0C
(1638973201.449349) elmcan 287#625A6966EC020E0D
(1638973201.542476) elmcan 287#625A6966EC020E0D
(1638973201.645010) elmcan 287#625A6966EC020F0D
(1638973201.748893) elmcan 287#625A6966EC020F0C
(1638973201.846299) elmcan 287#625A6966EC020F0C
(1638973201.947316) elmcan 287#625A6966EC020E0C
(1638973202.048925) elmcan 287#625A6966EC020E0D
(1638973202.146807) elmcan 287#625A6966EC020E0D
(1638973202.247927) elmcan 287#625A6966EC020F0D
(1638973202.347979) elmcan 287#625A6966EC020F0C
(1638973202.449869) elmcan 287#625A6966EC020F0C
(1638973202.547158) elmcan 287#625A6966EC020E0C
(1638973202.647587) elmcan 287#625A6966EC020E0D
(1638973202.750712) elmcan 287#625A6966EC020E0D
(1638973202.850782) elmcan 287#625A6966EC020F0D
(1638973202.949376) elmcan 287#625A6966EC020F0C
(1638973203.048493) elmcan 287#625A6966EC020F0C
(1638973203.147951) elmcan 287#625A6966EC020E0C
(1638973203.250349) elmcan 287#625A6966EC020E0D
(1638973203.349543) elmcan 287#625A6966EC020E0C
(1638973203.452042) elmcan 287#625A6966EC020F0C
(1638973203.551846) elmcan 287#625A6966EC020F0C
(1638973203.860357) elmcan 287#625A6966EC020E0C
(1638973203.960951) elmcan 287#625A6966EC020E0C
(1638973204.056343) elmcan 287#625A6966EC020F0C
(1638973204.160297) elmcan 287#625A6966EC020F0C
(1638973204.263572) elmcan 287#625A6966EC020F0C
(1638973204.359466) elmcan 287#625A6966EC020E0C
(1638973204.462628) elmcan 287#625A6966EC020E0C
(1638973204.560763) elmcan 287#625A6966EC020E0C
(1638973204.666382) elmcan 287#625A6966EC020F0C
(1638973204.770115) elmcan 287#625A6966EC020F0C
(1638973204.869525) elmcan 287#625A6966EC020F0C
(1638973204.968460) elmcan 287#625A6966EC020E0C
(1638973205.067662) elmcan 287#625A6966EC020F0C
(1638973205.167719) elmcan 287#625A6966EC020F0C
(1638973205.270810) elmcan 287#625A6966EC020F0C
(1638973205.375002) elmcan 287#625A6966EC020F0C
(1638973205.470316) elmcan 287#625A6966EC020F0C
(1638973205.570585) elmcan 287#625A6966EC020E0C
(1638973205.672200) elmcan 287#625A6966EC020F0C
(1638973205.777157) elmcan 287#625A6966EC020F0C
(1638973205.875900) elmcan 287#625A6966EC020F0C
(1638973205.982193) elmcan 287#625A6966EC020F0C
(1638973206.078084) elmcan 287#625A6966EC020F0C
(1638973206.183264) elmcan 287#625A6966EC020E0C
(1638973206.284867) elmcan 287#625A6966EC020F0C
(1638973206.384428) elmcan 287#625A6966EC020F0C
(1638973206.487067) elmcan 287#625A6966EC020E0C
(1638973206.708956) elmcan 287#625A6966EC020F0B
(1638973206.787299) elmcan 287#625A6966EC020E0C
(1638973206.888765) elmcan 287#625A6966EC020F0C
(1638973206.988814) elmcan 287#625A6966EC020F0C
(1638973207.088229) elmcan 287#625A6966EC020E0C
(1638973207.191617) elmcan 287#625A6966EC020F0B
(1638973207.292376) elmcan 287#625A6966EC020F0B
(1638973207.393731) elmcan 287#625A6966EC020E0C
(1638973207.495180) elmcan 287#625A6966EC020F0B
(1638973207.603097) elmcan 287#625A6966EC020E0D
(1638973207.706084) elmcan 287#625A6966EC020F0B
(1638973207.794046) elmcan 287#625A6966EC020F0C
(1638973207.900296) elmcan 287#625A6966EC020E0B
(1638973208.001632) elmcan 287#625A6966EC020F0B
(1638973208.098200) elmcan 287#625A6966EC020F0B
(1638973208.202763) elmcan 287#625A6966EC020F0B
(1638973208.313713) elmcan 287#625A6966EC020F0B
(1638973208.405307) elmcan 287#625A6966EC020E0B
(1638973208.504003) elmcan 287#625A6966EC020E0B
(1638973208.605064) elmcan 287#625A6966EC020E0B
(1638973208.715061) elmcan 287#625A6966EC020E0B
(1638973208.810521) elmcan 287#625A6966EC020E0B
(1638973208.904738) elmcan 287#625A6966EC020E0B
(1638973209.005451) elmcan 287#625A6966EC020E0B
(1638973209.107885) elmcan 287#625A6966EC020E0B
(1638973209.213674) elmcan 287#625A6966EC020E0B
(1638973209.309739) elmcan 287#625A6966EC020E0B
(1638973209.413088) elmcan 287#625A6966EC020E0B
(1638973209.508858) elmcan 287#625A6966EC020E0C
(1638973209.617617) elmcan 287#625A6966EC020D0B
(1638973209.722872) elmcan 287#625A6966EC020D0B
(1638973209.815299) elmcan 287#625A6966EC020D0C
(1638973209.917891) elmcan 287#625A6966EC020E0B
(1638973210.028214) elmcan 287#625A6966EC020E0B
(1638973210.228388) elmcan 287#625A6966EC020D0C
(1638973210.531445) elmcan 287#625A6966EC02090B
(1638973210.628883) elmcan 287#625A6966EC02090B
(1638973210.743565) elmcan 287#625A6966EC020A0B
(1638973210.930370) elmcan 287#625A6966EC020A0B
(1638973211.031683) elmcan 287#625A6966ED02090B
(1638973211.126137) elmcan 287#625A6966EC02090B
(1638973211.224375) elmcan 287#625A6966ED02090B
(1638973211.326205) elmcan 287#625A6966ED02090B
(1638973211.423483) elmcan 287#625A6966ED02080B
(1638973211.526514) elmcan 287#625A6966ED02080B
(1638973211.765441) elmcan 287#625A6966ED02080A
(1638973211.830538) elmcan 287#625A6966ED02080B
(1638973212.032047) elmcan 287#625A6966ED02080B
(1638973212.233262) elmcan 287#625A6966ED02080A
(1638973212.632513) elmcan 287#625A6966ED02060A
(1638973212.834914) elmcan 287#625A6966ED02060A
(1638973212.929204) elmcan 287#625A6966ED02060A
(1638973213.031026) elmcan 287#625A6966ED02060A
(1638973213.235284) elmcan 287#625A6966ED02070A
(1638973213.434549) elmcan 287#625A6966ED02050A
(1638973213.532603) elmcan 287#625A6966ED02050A
(1638973213.828387) elmcan 287#625A6966ED02050A
(1638973213.929608) elmcan 287#625A6966ED02050A
(1638973214.126553) elmcan 287#625A6966ED02050B
(1638973214.227270) elmcan 287#625A6966ED02050A
(1638973214.327644) elmcan 287#625A6966ED02050A
(1638973214.426530) elmcan 287#625A6966ED02030A
(1638973214.531230) elmcan 287#625A6966ED02030A
(1638973214.629254) elmcan 287#625A6966ED02040B
(1638973215.131597) elmcan 287#625A6966ED02030A
(1638973215.233768) elmcan 287#625A6966ED020309
(1638973215.332185) elmcan 287#625A6966ED02040A
(1638973215.633033) elmcan 287#625A6966ED02020B
(1638973215.828633) elmcan 287#625A6966ED02020B
(1638973215.933032) elmcan 287#625A6966ED02020B
(1638973216.033651) elmcan 287#625A6966ED02020B
(1638973216.134422) elmcan 287#625A6966ED02020B
(1638973216.332984) elmcan 287#625A6966ED02020B
(1638973216.831850) elmcan 287#625A6966EE02010B
(1638973217.132944) elmcan 287#625A6966ED02010A
(1638973217.228240) elmcan 287#625A6966ED02010A
(1638973217.534999) elmcan 287#625A6966ED020009
(1638973217.630962) elmcan 287#625A6966ED02000D
(1638973217.931231) elmcan 287#625A6966ED020009
(1638973218.027745) elmcan 287#625A6966ED020009
(1638973218.224186) elmcan 287#625A6966ED020008
(1638973218.322738) elmcan 287#625A6966ED020008
(1638973218.423314) elmcan 287#625A6966ED020009
(1638973218.522736) elmcan 287#625A6966ED020009
(1638973218.621900) elmcan 287#625A6966ED020009
(1638973218.917230) elmcan 287#625A6966ED02000A
(1638973219.021535) elmcan 287#625A6966ED02000A
(1638973219.319880) elmcan 287#625A6966ED020009
(1638973219.420215) elmcan 287#625A6966ED02000A
(1638973219.619387) elmcan 287#625A6966ED02000A
(1638973219.726445) elmcan 287#625A6966ED020009
(1638973219.818156) elmcan 287#625A6966ED020009
(1638973219.916476) elmcan 287#625A6966ED020009
(1638973220.015322) elmcan 287#625A6966ED02000A
(1638973220.114447) elmcan 287#625A6966ED02000A
(1638973220.214404) elmcan 287#625A6966ED02000A
(1638973220.312388) elmcan 287#625A6966ED020009
(1638973220.412014) elmcan 287#625A6966ED020009
(1638973220.511158) elmcan 287#625A6966ED020009
(1638973220.610198) elmcan 287#625A6966ED020009
(1638973220.722682) elmcan 287#625A6966ED020009
(1638973220.809368) elmcan 287#625A6966ED020009
(1638973220.908163) elmcan 287#625A6966ED020009
(1638973221.010818) elmcan 287#625A6966ED020009
(1638973221.110297) elmcan 287#625A6966ED020009
(1638973221.207209) elmcan 287#625A6966ED020009
(1638973221.305029) elmcan 287#625A6966ED020009
(1638973221.404014) elmcan 287#625A6966ED020009
(1638973221.510579) elmcan 287#625A6966ED02000A
(1638973221.908944) elmcan 287#625A6966ED020009
(1638973222.010720) elmcan 287#625A6966ED020009
(1638973222.107131) elmcan 287#625A6966ED02000A
(1638973222.303135) elmcan 287#625A6966ED02000A
(1638973222.404176) elmcan 287#625A6966ED020009
(1638973222.502878) elmcan 287#625A6966ED02000A
(1638973222.604062) elmcan 287#625A6966ED02000A
(1638973222.714050) elmcan 287#625A6966ED020109
(1638973222.801671) elmcan 287#625A6966ED02000A
(1638973222.902548) elmcan 287#625A6966ED02000A
(1638973223.000563) elmcan 287#625A6966ED020109
(1638973223.198692) elmcan 287#625A6966ED020109
(1638973223.301722) elmcan 287#625A6866ED020109
(1638973223.395518) elmcan 287#625A6866ED02000A
(1638973223.500201) elmcan 287#625A6866ED02000A
(1638973223.598150) elmcan 287#625A6866ED02010A
(1638973223.727286) elmcan 287#625A6866ED020109
(1638973223.799255) elmcan 287#625A6866EC02010A
(1638973223.891747) elmcan 287#625A6866EC02010A
(1638973224.096887) elmcan 287#625A6866EC02010A
(1638973224.195507) elmcan 287#615A6866EC02020A
(1638973224.293953) elmcan 287#615A6866EC02010A
(1638973224.396070) elmcan 287#615A6866EC02020A
(1638973224.495547) elmcan 287#615A6866EC02020A
(1638973224.598420) elmcan 287#615A6866EC02020A
(1638973224.902708) elmcan 287#615A6866EC02020A
(1638973225.002758) elmcan 287#615A6866EC02020A
(1638973225.105945) elmcan 287#615A6866EC02030A
(1638973225.204944) elmcan 287#615A6866EC02030A
(1638973225.300688) elmcan 287#615A6866EC02030A
(1638973225.398444) elmcan 287#615A6866EC02030B
(1638973225.497351) elmcan 287#615A6866EC02030B
(1638973225.594462) elmcan 287#615A6866EC02030B
(1638973225.713570) elmcan 287#615B6866EC02040A
(1638973225.796848) elmcan 287#615B6866EC02040A
(1638973225.899429) elmcan 287#615B6866EC02040A
(1638973225.997937) elmcan 287#615B6866EC02040B
(1638973226.095246) elmcan 287#615B6866EB02040B
(1638973226.294802) elmcan 287#615B6866EB02040A
(1638973226.397650) elmcan 287#615B6866EA02050B
(1638973226.497870) elmcan 287#615B6866EA02050B
(1638973226.597579) elmcan 287#615B6866EA02050B
(1638973226.709264) elmcan 287#615B6866EB02050B
(1638973226.800959) elmcan 287#615B6866EB02050B
(1638973226.899167) elmcan 287#615B6866EC02050B
(1638973226.999606) elmcan 287#615B6866EC02050B
(1638973227.108571) elmcan 287#615B6866EC02060C
(1638973227.211592) elmcan 287#615B6866EC02060B
(1638973227.317820) elmcan 287#615B6866EC02060B
(1638973227.521571) elmcan 287#615B6866EC02060B
(1638973227.756427) elmcan 287#615B6866EC02060B
(1638973227.820265) elmcan 287#615B6866EC02060C
(1638973227.922582) elmcan 287#615B6866EC02060B
(1638973228.023179) elmcan 287#615B6866EC02070B
(1638973228.329464) elmcan 287#615B6866EC02070C
(1638973228.431135) elmcan 287#615B6866EC02070C
(1638973228.535289) elmcan 287#615B6866EC02070B
(1638973228.834073) elmcan 287#615B6866EC02080C
(1638973229.132379) elmcan 287#615B6866EC02080B
(1638973229.241162) elmcan 287#615B6866EB02080C
(1638973229.437783) elmcan 287#615B6866E602080D
(1638973229.533589) elmcan 287#615B6866E302090D
(1638973229.837757) elmcan 287#615B6866DD02090C
(1638973230.135565) elmcan 287#615B6866D6020A0D
(1638973230.334354) elmcan 287#615B6866D5020A0C
(1638973230.432924) elmcan 287#615B6866D4020A0D
(1638973230.533461) elmcan 287#615B6866D4020B0D
(1638973230.931791) elmcan 287#615B6866D2020B0D
(1638973231.135135) elmcan 287#615B6866D2020B0D
(1638973231.434613) elmcan 287#615B6866D1020C0E
(1638973231.529209) elmcan 287#615B6866D0020C0E
(1638973231.632262) elmcan 287#615B6866CF020C0E
(1638973231.835545) elmcan 287#615B6866CE020C0F
(1638973231.932689) elmcan 287#615B6866CF020C0E
(1638973232.032712) elmcan 287#615B6866CF020C0E
(1638973232.135392) elmcan 287#615B6866D0020C0E
(1638973232.234222) elmcan 287#615B6866D1020D0E
(1638973232.332111) elmcan 287#615B6866D1020D0E
(1638973232.431736) elmcan 287#615B6866D1020D0E
(1638973232.533736) elmcan 287#615B6866D2020E0C
(1638973232.830953) elmcan 287#615B6866D6020D0D
(1638973233.035340) elmcan 287#615B6866D7020E0C
(1638973233.133238) elmcan 287#615B6866D7020E0C
(1638973233.228697) elmcan 287#615B6866D7020E0D
(1638973234.028948) elmcan 287#615B6866D7020F0E
(1638973234.331525) elmcan 287#615B6866D7020F0E
(1638973234.430842) elmcan 287#615B6866D7020F0E
(1638973234.525452) elmcan 287#615B6866D7020F0E
(1638973234.625032) elmcan 287#615B6866D8020F0E
(1638973234.732830) elmcan 287#615B6866DA020F0E
(1638973234.922838) elmcan 287#615B6866DD020F0F
(1638973235.021352) elmcan 287#615B6866DD020F0E
(1638973235.123295) elmcan 287#615B6866DD020F0E
(1638973235.221182) elmcan 287#615B6866DC020E0E
(1638973235.321638) elmcan 287#615B6866DC02100E
(1638973235.428218) elmcan 287#615B6866DB020E0F
(1638973235.518918) elmcan 287#615B6866D9020F0F
(1638973235.734213) elmcan 287#615B6866D7020F0E
(1638973235.821683) elmcan 287#615B6866D6020F0E
(1638973236.022118) elmcan 287#615B6866D6020F0E
(1638973236.118719) elmcan 287#615B6866D5020E0E
(1638973236.614700) elmcan 287#615B6866D5020F0E
(1638973236.815121) elmcan 287#615B6866D7020F0E
(1638973236.922610) elmcan 287#615B6866D8020F0E
(1638973237.017528) elmcan 287#615B6866DA020E0E
(1638973237.118305) elmcan 287#615B6866DB020F0D
(1638973237.215663) elmcan 287#615B6866DB020F0E
(1638973237.515068) elmcan 287#615B6866DB020E0D
(1638973237.613647) elmcan 287#615B6866DB020F0D
(1638973237.816747) elmcan 287#615B6866D9020F0D
(1638973237.917219) elmcan 287#615B6866D8020F0D
(1638973238.121387) elmcan 287#615B6866D6020E0E
(1638973238.218230) elmcan 287#615B6866D5020E0E
(1638973238.320498) elmcan 287#615B6866D4020F0D
(1638973238.421323) elmcan 287#615B6866D3020F0D
(1638973238.519217) elmcan 287#615B6866D3020F0D
(1638973238.620376) elmcan 287#615B6866D2020F0E
(1638973238.822225) elmcan 287#615B6866D3020F0E
(1638973238.918131) elmcan 287#615B6866D4020F0D
(1638973239.019664) elmcan 287#615B6866D5020F0D
(1638973239.121154) elmcan 287#615B6866D5020F0D
(1638973239.217578) elmcan 287#615B6866D5020E0E
(1638973239.320962) elmcan 287#615B6866D5020F0D
(1638973239.522632) elmcan 287#615B6866D5020F0D
(1638973239.619852) elmcan 287#615B6866D5020F0D
(1638973239.741746) elmcan 287#615B6866D5020E0D
(1638973239.825374) elmcan 287#615B6866D5020F0D
(1638973240.129105) elmcan 287#615B6866D5020E0D
(1638973240.224717) elmcan 287#615B6866D4020F0D
(1638973240.330073) elmcan 287#615B6866D3020F0D
(1638973240.628885) elmcan 287#615B6866D1020F0D
(1638973241.029763) elmcan 287#615B6866D1020F0C
(1638973241.230026) elmcan 287#615B6866D1020F0D
(1638973241.329469) elmcan 287#615B6866D1020F0D
(1638973241.431011) elmcan 287#615B6866D1020F0C
(1638973241.529796) elmcan 287#615B6866D1020F0C
(1638973242.028460) elmcan 287#615B6866D1020E0C
(1638973242.129893) elmcan 287#615B6866D1020F0C
(1638973242.232737) elmcan 287#615B6866D1020E0D
(1638973242.332342) elmcan 287#615B6866D1020F0C
(1638973242.536545) elmcan 287#615B6866D1020C0D
(1638973242.633984) elmcan 287#615B6866D1020F0C
(1638973242.736075) elmcan 287#615B6866D1020E0C
(1638973242.938481) elmcan 287#615B6866D0020F0D
(1638973243.242590) elmcan 287#615B6866D3020F0C
(1638973243.544894) elmcan 287#615B6866D5020F0B
(1638973243.647179) elmcan 287#615B6866D5020F0B
(1638973243.749366) elmcan 287#615B6866D5020F0B
(1638973243.849039) elmcan 287#615B6866D4020E0C
(1638973243.949859) elmcan 287#615B6866D4020E0C
(1638973244.049301) elmcan 287#615B6866D4020F0C
(1638973244.153063) elmcan 287#615B6866D3020E0B
(1638973244.254213) elmcan 287#615B6866D1020E0B
(1638973244.354560) elmcan 287#615B6866D1020E0B
(1638973244.458384) elmcan 287#615B6866D0020F0B
(1638973244.557885) elmcan 287#615B6866CF020E0C
(1638973244.659291) elmcan 287#615B6866CF020F0C
(1638973244.761467) elmcan 287#615B6866CF020E0B
(1638973244.858220) elmcan 287#615B6866CF020F0B
(1638973244.967413) elmcan 287#615B6866CF020F0C
(1638973245.067130) elmcan 287#615B6866CF020E0B
(1638973245.164437) elmcan 287#615B6866D0020E0B
(1638973245.276000) elmcan 287#615B6866D0020F0C
(1638973245.370872) elmcan 287#615B6866D1020E0A
(1638973245.471518) elmcan 287#615B6866D1020E0A
(1638973245.569561) elmcan 287#615B6866D1020E0B
(1638973245.671085) elmcan 287#615B6866D1020E0B
(1638973245.774551) elmcan 287#615B6866D1020E0B
(1638973245.875964) elmcan 287#615B6866D1020F0A
(1638973245.977099) elmcan 287#615B6866D1020E0A
(1638973246.076942) elmcan 287#615B6866D1020F0A
(1638973246.177880) elmcan 287#615B6866D1020E0B
(1638973246.286116) elmcan 287#615B6866D1020E0B
(1638973246.387061) elmcan 287#615B6866D1020D0A
(1638973246.580782) elmcan 287#615B6866D3020D09
(1638973246.700041) elmcan 287#615B6866D4020D08
(1638973246.781156) elmcan 287#615B6866D4020C09
(1638973246.882952) elmcan 287#615B6866D4020D08
(1638973246.982170) elmcan 287#615B6866D4020D08
(1638973247.180907) elmcan 287#615B6866D4020D08
(1638973247.284376) elmcan 287#615B6866D5020D08
(1638973247.378584) elmcan 287#615B6866D5020E08
(1638973247.478330) elmcan 287#615B6866D5020E08
(1638973247.581043) elmcan 287#615B6866D3020E08
(1638973247.780892) elmcan 287#615B6866D1020E0A
(1638973247.878552) elmcan 287#615B6866D1020E09
(1638973247.977224) elmcan 287#615B6866D1020F09
(1638973248.079023) elmcan 287#615B6866D2020F09
(1638973248.179324) elmcan 287#615B6866D3020E09
(1638973248.281998) elmcan 287#615B6866D3020F09
(1638973248.375233) elmcan 287#615B6866D3020F09
(1638973248.482367) elmcan 287#615B6866D3020F0A
(1638973248.583849) elmcan 287#615B6866D3020F0A
(1638973248.682654) elmcan 287#615B6866D3021009
(1638973248.881574) elmcan 287#615B6866D3020F0A
(1638973248.980454) elmcan 287#615B6866D202100A
(1638973249.078719) elmcan 287#615B6866D102100A
(1638973249.187318) elmcan 287#615B6866D102100A
(1638973249.390134) elmcan 287#615B6866D002110A
(1638973249.490171) elmcan 287#615B6866D002100B
(1638973249.590920) elmcan 287#615B6866CF02110B
(1638973249.867033) elmcan 287#615B6866CF02110B
(1638973250.009720) elmcan 287#615B6866D102110C
(1638973250.197174) elmcan 287#615B6866D202110C
(1638973250.286695) elmcan 287#615B6866D202130C
(1638973250.488726) elmcan 287#615B6866D202130D
(1638973250.582265) elmcan 287#615B6866D202120D
(1638973250.783412) elmcan 287#615B6866D202120D
(1638973250.885467) elmcan 287#615B6866D202120D
(1638973251.182986) elmcan 287#615B6866D202120D
(1638973251.284510) elmcan 287#615B6866D202130D
(1638973251.378208) elmcan 287#615B6866D202120E
(1638973251.583706) elmcan 287#615B6866D202130D
(1638973251.679196) elmcan 287#615B6866D202120E
(1638973251.783737) elmcan 287#615B6866D202120E
(1638973251.906623) elmcan 287#615B6866D202130E
(1638973251.977769) elmcan 287#615B6866D202130E
(1638973252.081046) elmcan 287#615B6866D202130E
(1638973252.182610) elmcan 287#615B6866D202130E
(1638973252.280049) elmcan 287#615B6866D202120F
(1638973252.381534) elmcan 287#615B6866D202130E
(1638973252.483390) elmcan 287#615B6866D202130F
(1638973252.683751) elmcan 287#615B6866D202120F
(1638973252.786113) elmcan 287#615B6866D102130F
(1638973252.886815) elmcan 287#615B6866D102130F
(1638973252.983476) elmcan 287#615B6866D102130F
(1638973253.083099) elmcan 287#615B6866D102120F
(1638973253.183119) elmcan 287#615B6866D1021310
(1638973253.281560) elmcan 287#615B6866D1021210
(1638973253.379206) elmcan 287#615B6866D1021410
(1638973253.578746) elmcan 287#615B6866D1021310
(1638973253.677211) elmcan 287#615B6866D1021310
(1638973253.779201) elmcan 287#615B6866D1021311
(1638973253.885108) elmcan 287#615B6866D1021311
(1638973253.979208) elmcan 287#615B6866D1021311
(1638973254.078921) elmcan 287#615B6866D1021211
(1638973254.377780) elmcan 287#615B6866D1021312
(1638973254.480183) elmcan 287#615B6866D1021312
(1638973254.577031) elmcan 287#615B6866D1021312
(1638973254.671488) elmcan 287#615B6866D1021212
(1638973254.777907) elmcan 287#615B6866D1021212
(1638973254.874643) elmcan 287#615B6866D0021312
(1638973254.971932) elmcan 287#615B6866CF021412
(1638973255.071311) elmcan 287#615B6866CD021412
(1638973255.173496) elmcan 287#615B6866CD021313
(1638973255.269101) elmcan 287#615B6866CC021313
(1638973255.369228) elmcan 287#615B6866CC021413
(1638973255.477373) elmcan 287#615B6866CC021313
(1638973255.575834) elmcan 287#615B6866CC021414
(1638973255.673090) elmcan 287#615B6866CC021313
(1638973255.773203) elmcan 287#615B6866CC021414
(1638973255.878462) elmcan 287#615B6866CC021314
(1638973256.080052) elmcan 287#615B6866CD021414
(1638973256.181760) elmcan 287#615B6866CE021315
(1638973256.285062) elmcan 287#615B6866CF021315
(1638973256.381854) elmcan 287#615B6866CF021314
(1638973256.484962) elmcan 287#615B6866CF021314
(1638973256.700098) elmcan 287#615B6866CF021415
(1638973256.787505) elmcan 287#615B6866CF021415
(1638973256.889951) elmcan 287#615B6866CF021314
(1638973256.986401) elmcan 287#615B6866CF021416
(1638973257.184127) elmcan 287#615B6866CF021315
(1638973257.289653) elmcan 287#615B6866CF021315
(1638973257.384534) elmcan 287#615B6866CF021416
(1638973257.485536) elmcan 287#615B6866CF021416
(1638973257.582121) elmcan 287#615B6866CF021316
(1638973257.681367) elmcan 287#615B6866CF021317
(1638973257.885984) elmcan 287#615B6866CF021316
(1638973257.980828) elmcan 287#615B6866CF021417
(1638973258.081829) elmcan 287#615B6866CF021417
(1638973258.181976) elmcan 287#615B6866CF021217
(1638973258.282780) elmcan 287#615B6866CF021416
(1638973258.379442) elmcan 287#615B6866CF021417
(1638973258.478250) elmcan 287#615B6866CF021416
(1638973258.581113) elmcan 287#615B6866CF021317
(1638973258.676719) elmcan 287#615B6866CF021317
(1638973258.775944) elmcan 287#615B6866CF021317
(1638973258.876532) elmcan 287#615B6866CF021317
(1638973258.980342) elmcan 287#615B6866CF021317
(1638973259.080358) elmcan 287#615B6866CF021217
(1638973259.175000) elmcan 287#615B6866CF021317
(1638973259.278679) elmcan 287#615B6866CF021316
(1638973259.370980) elmcan 287#615B6866D0021317
(1638973259.473875) elmcan 287#615B6866D0021317
(1638973259.576956) elmcan 287#615B6866D0021317
(1638973259.671307) elmcan 287#615B6866D0021316
(1638973259.774791) elmcan 287#615B6866D0021316
(1638973259.871038) elmcan 287#615B6866D0021316
(1638973259.972654) elmcan 287#615B6866D0021317
(1638973260.075130) elmcan 287#615B6866D0021317
(1638973260.273596) elmcan 287#615B6866D0021317
(1638973260.367579) elmcan 287#615B6866D0021316
(1638973260.468646) elmcan 287#615B6866D0021316
(1638973260.565677) elmcan 287#615B6866D0021317
(1638973260.669362) elmcan 287#615B6866D0021316
(1638973260.766492) elmcan 287#615B6866D0021316
(1638973260.968150) elmcan 287#615B6866D0021416
(1638973261.070981) elmcan 287#615B6866D0021317
(1638973261.274830) elmcan 287#615B6866D0021216
(1638973261.374329) elmcan 287#615B6866D0021216
(1638973261.472068) elmcan 287#615B6866D0021316
(1638973261.572931) elmcan 287#615B6866D0021317
(1638973261.675377) elmcan 287#615B6866D0021317
(1638973261.774351) elmcan 287#615B6866D0021216
(1638973261.878396) elmcan 287#615B6866D0021316
(1638973261.976179) elmcan 287#615B6866D0021316
(1638973262.071871) elmcan 287#615B6866D0021316
(1638973262.180020) elmcan 287#615B6866D0021316
(1638973262.379503) elmcan 287#615B6866D0021316
(1638973262.479630) elmcan 287#615B6866D0021315
(1638973262.583041) elmcan 287#615B6866D0021115
(1638973262.685373) elmcan 287#615B6866D0021415
(1638973262.785122) elmcan 287#615B6866D0021315
(1638973262.886812) elmcan 287#615B6866D0021315
(1638973262.986347) elmcan 287#615B6866D0021315
(1638973263.185729) elmcan 287#615B6866D0021315
(1638973263.719158) elmcan 287#615B6866CF021414
(1638973263.786153) elmcan 287#615B6866CF021314
(1638973263.888236) elmcan 287#615B6866CF021315
(1638973263.985308) elmcan 287#615B6866CF021315
(1638973264.082044) elmcan 287#615B6866CE021215
(1638973264.185713) elmcan 287#615B6866CD021314
(1638973264.283173) elmcan 287#615B6866CB021314
(1638973264.382745) elmcan 287#615B6866CA021315
(1638973264.475242) elmcan 287#615B6866CA021314
(1638973264.578033) elmcan 287#615B6866C9021214
(1638973264.673443) elmcan 287#615B6866C9021214
(1638973264.775569) elmcan 287#615B6866C9021315
(1638973264.878088) elmcan 287#615B6866C9021315
(1638973264.977797) elmcan 287#615B6866C9021315
(1638973265.077562) elmcan 287#625B6866C9021214
(1638973265.177780) elmcan 287#625B6866C9021214
(1638973265.276129) elmcan 287#625B6866C9021214
(1638973265.372517) elmcan 287#625B6866CA021313
(1638973265.471882) elmcan 287#625B6866CB021313
(1638973265.574282) elmcan 287#625B6866CC021313
(1638973265.672707) elmcan 287#625B6866CD021212
(1638973265.771370) elmcan 287#625B6866CE021313
(1638973265.873599) elmcan 287#625B6866CE021313
(1638973265.969356) elmcan 287#625B6866CE021213
(1638973266.067760) elmcan 287#625B6866CE021313
(1638973266.170960) elmcan 287#625B6866CD021313
(1638973266.274806) elmcan 287#625B6866CC021214
(1638973266.370813) elmcan 287#625B6866CC021213
(1638973266.471479) elmcan 287#625B6866CC021212
(1638973266.569120) elmcan 287#625B6866CB021312
(1638973266.667154) elmcan 287#625B6866CB021312
(1638973266.769244) elmcan 287#625B6866CB021312
(1638973266.868206) elmcan 287#625B6866CB021212
(1638973266.965959) elmcan 287#625B6866CB021212
(1638973267.066521) elmcan 287#625B6866CB021212
(1638973267.165769) elmcan 287#625B6866CA021312
(1638973267.266545) elmcan 287#625B6866CA021312
(1638973267.368194) elmcan 287#625B6866CA021212
(1638973267.467970) elmcan 287#625B6866CA021112
(1638973267.569752) elmcan 287#625B6866CA021211
(1638973267.671812) elmcan 287#625B6866CA021211
(1638973267.768048) elmcan 287#625B6866CA021210
(1638973267.874228) elmcan 287#625B6866CA021111
(1638973267.973718) elmcan 287#625B6866CA021111
(1638973268.075222) elmcan 287#625B6866CA021111
(1638973268.176256) elmcan 287#625B6866CA021211
(1638973268.278000) elmcan 287#625B6866CA021211
(1638973268.372044) elmcan 287#625B6866CB021010
(1638973268.472694) elmcan 287#625B6866CC02110F
(1638973268.577285) elmcan 287#625B6866CD021110
(1638973268.677523) elmcan 287#625B6866CD021010
(1638973268.775061) elmcan 287#625B6866CD021010
(1638973268.877693) elmcan 287#625B6866CE021010
(1638973268.979336) elmcan 287#625B6866CE021010
(1638973269.077182) elmcan 287#625B6866CE021010
(1638973269.172743) elmcan 287#625B6866CF021010
(1638973269.273296) elmcan 287#625B6866CF021010
(1638973269.374166) elmcan 287#625B6866CF02100F
(1638973269.475625) elmcan 287#625B6866CF02100E
(1638973269.572386) elmcan 287#625B6866CF02100F
(1638973269.672119) elmcan 287#625B6866CF02100F
(1638973269.773632) elmcan 287#625B6866CE02100F
(1638973269.871170) elmcan 287#625B6866CE02100F
(1638973269.970862) elmcan 287#625B6866CD02100F
(1638973270.073038) elmcan 287#625B6866CD02100F
(1638973270.169599) elmcan 287#625B6866CD02100F
(1638973270.269062) elmcan 287#625B6866CD02100F
(1638973270.373716) elmcan 287#625B6866CC020E0F
(1638973270.470792) elmcan 287#625B6866CC020C0E
(1638973270.570236) elmcan 287#625B6866CC020A0E
(1638973270.668808) elmcan 287#625B6866CC02080E
(1638973270.770718) elmcan 287#625B6866CC02070E
(1638973270.872655) elmcan 287#625B6866CC02070E
(1638973270.973338) elmcan 287#625B6866CC02070F
(1638973271.069693) elmcan 287#625B6866CC02080F
(1638973271.170766) elmcan 287#625B6866CC02080E
(1638973271.276975) elmcan 287#625B6866CC02080E
(1638973271.374814) elmcan 287#625B6866CC02060E
(1638973271.476447) elmcan 287#625B6866CC02040D
(1638973271.578159) elmcan 287#625B6866CC02040D
(1638973271.678986) elmcan 287#625B6866CC02050E
(1638973271.779506) elmcan 287#625B6866CC02050E
(1638973271.874493) elmcan 287#625B6866CC02050E
(1638973271.974505) elmcan 287#625B6866CC02050D
(1638973272.077468) elmcan 287#625B6866CC02040D
(1638973272.177837) elmcan 287#625B6866CC02040D
(1638973272.281044) elmcan 287#625B6866CC02050E
(1638973272.383686) elmcan 287#625B6866CC02040C
(1638973272.482487) elmcan 287#625B6866CC02020C
(1638973272.684672) elmcan 287#625B6866CC02020D
(1638973272.785185) elmcan 287#625B6866CC02020D
(1638973272.884996) elmcan 287#625B6866CC02030C
(1638973272.985439) elmcan 287#625B6866CC02030C
(1638973273.085824) elmcan 287#625B6866CC02030C
(1638973273.184906) elmcan 287#625B6866CC02020D
(1638973273.483702) elmcan 287#625B6866CB02010C
(1638973273.585837) elmcan 287#625B6866C902010C
(1638973273.688575) elmcan 287#625B6866C602000C
(1638973273.791280) elmcan 287#625B6866C002000D
(1638973273.887850) elmcan 287#625B6866B502010D
(1638973273.985587) elmcan 287#625B6866A802010D
(1638973274.087927) elmcan 287#625B6866A302000E
(1638973274.183591) elmcan 287#625B6866A202010D
(1638973274.287065) elmcan 287#625B6866A002010D
(1638973274.382034) elmcan 287#625B6866A002000D
(1638973274.483231) elmcan 287#625B68669F02000D
(1638973274.587597) elmcan 287#625B68669E02000D
(1638973274.683587) elmcan 287#625B68669D02000D
(1638973274.883431) elmcan 287#625B68669C02000D
(1638973274.981058) elmcan 287#625B68669C02000D
(1638973275.082892) elmcan 287#625B68669B02000E
(1638973275.179424) elmcan 287#625B68669A02000D
(1638973275.281929) elmcan 287#625B68669A02000D
(1638973275.382512) elmcan 287#625B68669A02000D
(1638973275.481665) elmcan 287#625B68669902000D
(1638973275.578749) elmcan 287#625B68669802000D
(1638973275.679077) elmcan 287#625B68669802000D
(1638973275.777058) elmcan 287#625B68669A02000D
(1638973275.873978) elmcan 287#625B68669D02000C
(1638973275.973719) elmcan 287#625B6866A002000E
(1638973276.075475) elmcan 287#625B6866A602000D
(1638973276.175876) elmcan 287#625B6866AB02000E
(1638973276.275126) elmcan 287#625B6866B402000D
(1638973276.376180) elmcan 287#625B6866C002000C
(1638973276.476153) elmcan 287#625B6866C602000B
(1638973276.577476) elmcan 287#625B6866CA02000C
(1638973276.682461) elmcan 287#625B6866CB02000C
(1638973276.781242) elmcan 287#625B6866C802000C
(1638973276.879648) elmcan 287#625B6866C602000B
(1638973276.985070) elmcan 287#625B6866C302000C
(1638973277.085921) elmcan 287#625B6866C202000C
(1638973277.185602) elmcan 287#625B6866C102000C
(1638973277.286378) elmcan 287#625B6866C102000C
(1638973277.389322) elmcan 287#625B6866C002000C
(1638973277.489633) elmcan 287#625B6866C002000B
(1638973277.590187) elmcan 287#625B6866C002000B
(1638973277.790162) elmcan 287#625B6866B902000C
(1638973277.887352) elmcan 287#625B6866B102000C
(1638973278.086888) elmcan 287#625B6866AD02000C
(1638973278.189384) elmcan 287#625B6866AE02000C
(1638973278.286222) elmcan 287#625B6866B002000C
(1638973278.387746) elmcan 287#625B6866B102000C
(1638973278.489964) elmcan 287#625B6866B402000C
(1638973278.587749) elmcan 287#625B6866B802000C
(1638973278.787272) elmcan 287#625B6866C102000C
(1638973278.886914) elmcan 287#625B6866C002000B
(1638973278.986474) elmcan 287#625B6866BE02000C
(1638973279.090043) elmcan 287#625B6866BB02000C
(1638973279.187860) elmcan 287#625B6866B902000C
(1638973279.288599) elmcan 287#625B6866B802000B
(1638973279.387245) elmcan 287#625B6866BA02000B
(1638973279.489921) elmcan 287#625B6866BD02000B
(1638973279.586559) elmcan 287#625B6866BF02000C
(1638973279.687210) elmcan 287#625B6866C302000C
(1638973279.790992) elmcan 287#625B6866C602000B
(1638973279.891360) elmcan 287#625B6866C602000C
(1638973279.995399) elmcan 287#625B6866C502000C
(1638973280.193497) elmcan 287#625B6866C302000C
(1638973280.296095) elmcan 287#625B6866C302000C
(1638973280.394884) elmcan 287#625B6866C402000B
(1638973280.494220) elmcan 287#615B6866C502000C
(1638973280.597752) elmcan 287#615B6866C502000C
(1638973280.709014) elmcan 287#615B6866C302000B
(1638973280.796423) elmcan 287#615B6866C202000C
(1638973280.895007) elmcan 287#615B6866C102000C
(1638973280.994896) elmcan 287#615B6866C102000C
(1638973281.197499) elmcan 287#615B6866C002000C
(1638973281.297846) elmcan 287#615B6866C102000B
(1638973281.396754) elmcan 287#615B6866C302000C
(1638973281.492854) elmcan 287#615B6866C602000C
(1638973281.595299) elmcan 287#615B6866C502000C
(1638973281.713434) elmcan 287#615B6866C102000C
(1638973281.798914) elmcan 287#615B6866BD02000B
(1638973281.898315) elmcan 287#615B6866BB02000C
(1638973281.997098) elmcan 287#615B6866BA02000C
(1638973282.096603) elmcan 287#615B6866B902000C
(1638973282.193528) elmcan 287#615B6866BA02000C
(1638973282.296432) elmcan 287#615B6866BC02000C
(1638973282.393851) elmcan 287#615B6866BE02000B
(1638973282.494941) elmcan 287#615B6866C002000B
(1638973282.606056) elmcan 287#615B6866C002000C
(1638973282.711045) elmcan 287#615B6866C002000C
(1638973282.798463) elmcan 287#615B6866C002010C
(1638973282.897429) elmcan 287#615B6866BF02010C
(1638973282.999556) elmcan 287#615B6866BE02010C
(1638973283.094710) elmcan 287#615B6866BC02020C
(1638973283.197150) elmcan 287#615B6866BC02010C
(1638973283.293970) elmcan 287#615B6866BA02010C
(1638973283.393197) elmcan 287#615B6866B902020C
(1638973283.494293) elmcan 287#615B6866B902020B
(1638973283.597554) elmcan 287#615B6866B902020B
(1638973283.711146) elmcan 287#615B6866B902020C
(1638973283.798276) elmcan 287#615B6866BA02020C
(1638973283.893628) elmcan 287#615B6866BD02020C
(1638973283.996029) elmcan 287#615B6866BF02030C
(1638973284.099416) elmcan 287#615B6866C302030C
(1638973284.201842) elmcan 287#615B6866C402030C
(1638973284.305045) elmcan 287#615B6866C502020B
(1638973284.401151) elmcan 287#615B6866C602030B
(1638973284.506257) elmcan 287#615B6866C802030B
(1638973284.606568) elmcan 287#615B6866C802030C
(1638973284.718327) elmcan 287#615B6866C802030C
(1638973284.805138) elmcan 287#615B6866C502030C
(1638973284.900177) elmcan 287#615B6866C202040B
(1638973285.008947) elmcan 287#615B6866C102040C
(1638973285.112778) elmcan 287#615B6866C002040C
(1638973285.216257) elmcan 287#615B6866C102040B
(1638973285.317913) elmcan 287#615B6866C102040B
(1638973285.414111) elmcan 287#615B6866C202050C
(1638973285.514179) elmcan 287#615B6866C202040B
(1638973285.617988) elmcan 287#615B6866C202050C
(1638973285.733641) elmcan 287#615B6866C102050C
(1638973285.821391) elmcan 287#615B6866C202050C
(1638973285.920801) elmcan 287#615B6866C102050B
(1638973286.023583) elmcan 287#615B6866C102050B
(1638973286.325097) elmcan 287#615B6866C202060C
(1638973286.523030) elmcan 287#615B6866C402060B
(1638973286.625715) elmcan 287#615B6866C502060B
(1638973286.928588) elmcan 287#615B6866C002070B
(1638973287.227502) elmcan 287#615B6866B602070C
(1638973287.330419) elmcan 287#615B6866B002070C
(1638973287.426261) elmcan 287#615B6866A702070B
(1638973287.526731) elmcan 287#615B68669D02080C
(1638973287.731308) elmcan 287#615B68669802080C
(1638973287.825903) elmcan 287#615B68669702080C
(1638973287.923580) elmcan 287#615B68669702090B
(1638973288.227937) elmcan 287#615B68669A02090C
(1638973288.424235) elmcan 287#615B68669F02090C
(1638973288.822429) elmcan 287#615B6866A702090B
(1638973288.922119) elmcan 287#615B6866AA020A0B
(1638973289.324140) elmcan 287#615B6866AF020A0B
(1638973289.521434) elmcan 287#615B6866AF020A0B
(1638973289.621210) elmcan 287#615B6866B0020A0B
(1638973289.728452) elmcan 287#615B6866B0020B0B
(1638973289.822156) elmcan 287#615B6866B0020B0B
(1638973290.024324) elmcan 287#615B6866B2020B0B
(1638973290.327458) elmcan 287#615B6866C1020B0B
(1638973290.531552) elmcan 287#615B6866C4020C0B
(1638973290.632148) elmcan 287#615B6866C3020C0B
(1638973290.833339) elmcan 287#615B6866C1020C0A
(1638973290.934593) elmcan 287#615B6866C1020D0A
(1638973291.037167) elmcan 287#615B6866C0020C0B
(1638973291.137826) elmcan 287#615B6866C0020C0A
(1638973291.238399) elmcan 287#615B6866C0020D0B
(1638973291.338347) elmcan 287#615B6866C0020D0A
(1638973291.441934) elmcan 287#615B6866C0020D0A
(1638973291.643092) elmcan 287#615B6866C1020E0A
(1638973291.840576) elmcan 287#615B6866C3020D0A
(1638973292.146018) elmcan 287#615B6866C2020E0A
(1638973292.451509) elmcan 287#615B6866C1020E0B
(1638973292.548295) elmcan 287#615B6866C4020A0B
(1638973292.647795) elmcan 287#615B6866C8020E0B
(1638973292.753356) elmcan 287#615B6866CB020F0B
(1638973292.850994) elmcan 287#615B6866CE020E0B
(1638973292.956870) elmcan 287#615B6866D1020F0B
(1638973293.057022) elmcan 287#615B6866D1020F0B
(1638973293.161384) elmcan 287#615B6866D2020F0B
(1638973293.259683) elmcan 287#615B6866D1020F0A
(1638973293.359906) elmcan 287#615B6866CF020F0A
(1638973293.566270) elmcan 287#615B6866CB02100B
(1638973293.665447) elmcan 287#615B6866CB020F0A
(1638973293.764294) elmcan 287#615B6866CE02100B
(1638973293.867597) elmcan 287#615B6866D102100B
(1638973293.969513) elmcan 287#615B6866D502100B
(1638973294.071164) elmcan 287#615B6866D8020F0B
(1638973294.170095) elmcan 287#615B6866DB02100B
(1638973294.372139) elmcan 287#615B6866DE02100B
(1638973294.469577) elmcan 287#615B6866DE02100B
(1638973294.571324) elmcan 287#615B6866DE02110B
(1638973294.674556) elmcan 287#615B6866DE02100A
(1638973294.771415) elmcan 287#615B6866D502100A
(1638973294.869199) elmcan 287#615B6866D002110B
(1638973294.969300) elmcan 287#615B6866CE02120A
(1638973295.077780) elmcan 287#615B6866CA02120B
(1638973295.178345) elmcan 287#615B6866C802110B
(1638973295.281629) elmcan 287#615B6866C402110B
(1638973295.381322) elmcan 287#615B6866BE02120B
(1638973295.483867) elmcan 287#615B6866BC02130B
(1638973295.686123) elmcan 287#615B6866BA02120B
(1638973295.885233) elmcan 287#615B6866C502120B
(1638973296.290326) elmcan 287#615B6866D402120B
(1638973296.398708) elmcan 287#615B6866D302120B
(1638973296.501417) elmcan 287#615B6866CF02120B
(1638973296.600222) elmcan 287#615B6866CB02130C
(1638973296.715562) elmcan 287#615B6866C902120B
(1638973296.806153) elmcan 287#615B6866C902120B
(1638973296.905956) elmcan 287#615B6866CA02120A
(1638973297.005280) elmcan 287#615B6866CB02130C
(1638973297.102806) elmcan 287#615B6866CB02130C
(1638973297.204156) elmcan 287#615B6866CB02130C
(1638973297.308422) elmcan 287#615B6866CB02120B
(1638973297.406453) elmcan 287#615B6866CB02120A
(1638973297.513256) elmcan 287#615B6866C702120B
(1638973297.606910) elmcan 287#615B6866C302130C
(1638973297.722570) elmcan 287#615B6866BF02120B
(1638973297.807733) elmcan 287#615B6866BC02130C
(1638973297.906369) elmcan 287#615B6866BA02140D
(1638973298.010871) elmcan 287#615B6866B902130C
(1638973298.108087) elmcan 287#615B6866B902130D
(1638973298.205813) elmcan 287#615B6866B902130C
(1638973298.305429) elmcan 287#615B6866BA02130C
(1638973298.408645) elmcan 287#615B6866BC02130C
(1638973298.508344) elmcan 287#615B6866BE02130D
(1638973298.605285) elmcan 287#615B6866BF02120C
(1638973298.723341) elmcan 287#615B6866C002140C
(1638973298.809487) elmcan 287#615B6866C002120C
(1638973298.911097) elmcan 287#615B6866C002140C
(1638973299.003554) elmcan 287#615B6866C002120D
(1638973299.212053) elmcan 287#615B6866C002120D
(1638973299.313063) elmcan 287#615B6866C102120C
(1638973299.409373) elmcan 287#615B6866C202140D
(1638973299.506689) elmcan 287#615B6866C502130D
(1638973299.614586) elmcan 287#615B6866C902130D
(1638973299.910336) elmcan 287#615B6866DC02130D
(1638973300.012238) elmcan 287#615B6866E302120D
(1638973300.114723) elmcan 287#615B6866E002110D
(1638973300.214346) elmcan 287#615B6866DD02120D
(1638973300.307949) elmcan 287#615B6866D802130D
(1638973300.510291) elmcan 287#615B6866D602130E
(1638973300.613750) elmcan 287#615B6866D602130D
(1638973300.722632) elmcan 287#615B6866D802120D
(1638973300.809865) elmcan 287#615B6866D902120E
(1638973300.905008) elmcan 287#615B6866D902130E
(1638973301.007458) elmcan 287#615B6866DA02130E
(1638973301.106720) elmcan 287#615B6866DB02120E
(1638973301.205295) elmcan 287#615B6866DC02130E
(1638973301.304858) elmcan 287#615B6866DD02130D
(1638973301.408884) elmcan 287#615B6866DE02130D
(1638973301.506865) elmcan 287#615B6866DE02120E
(1638973301.610036) elmcan 287#615B6866DD02120E
(1638973301.735701) elmcan 287#615B6866DC02120E
(1638973301.807051) elmcan 287#615B6866DB02130D
(1638973301.902907) elmcan 287#615B6866DA02130D
(1638973302.007162) elmcan 287#615B6866D902130D
(1638973302.103862) elmcan 287#615B6866D902120E
(1638973302.201205) elmcan 287#615B6866D902120E
(1638973302.299107) elmcan 287#615B6866D902120D
(1638973302.399321) elmcan 287#615B6866D802130F
(1638973302.501849) elmcan 287#615B6866D702130E
(1638973302.603843) elmcan 287#615B6866D5020E0E
(1638973302.715627) elmcan 287#615B6866D402130E
(1638973302.800273) elmcan 287#615B6866D402120E
(1638973302.903365) elmcan 287#615B6866D302130E
(1638973303.002435) elmcan 287#615B6866D302130E
(1638973303.101763) elmcan 287#615B6866D302130E
(1638973303.203979) elmcan 287#615B6866D302130E
(1638973303.305298) elmcan 287#615B6866D302120E
(1638973303.398361) elmcan 287#615B6866D202130F
(1638973303.495334) elmcan 287#615B6866D102120F
(1638973303.595184) elmcan 287#615B6866D102130E
(1638973303.708588) elmcan 287#615B6866D002130F
(1638973303.798843) elmcan 287#615B6866D002130F
(1638973303.898401) elmcan 287#615B6866D002130E
(1638973303.997641) elmcan 287#615B6866D002130E
(1638973304.096884) elmcan 287#615B6866D002130E
(1638973304.197144) elmcan 287#615B6866D002140F
(1638973304.295977) elmcan 287#615B6866D002120F
(1638973304.390778) elmcan 287#615B6866D102130F
(1638973304.495913) elmcan 287#615B6866D102130F
(1638973304.706123) elmcan 287#615B6866D102130F
(1638973304.800230) elmcan 287#615B6866D102120F
(1638973304.894723) elmcan 287#615B6866D102130F
(1638973304.992366) elmcan 287#615B6866D002130F
(1638973305.094869) elmcan 287#615B6866CF02130F
(1638973305.196225) elmcan 287#615B6866CF02130F
(1638973305.293025) elmcan 287#615B6866CE02130F
(1638973305.405730) elmcan 287#615B6866CE02130F
(1638973305.499880) elmcan 287#615B6866CE021310
(1638973305.603753) elmcan 287#615B6866CD021310
(1638973305.803686) elmcan 287#615B6866CC021310
(1638973305.897636) elmcan 287#615B6866CC021310
(1638973306.001751) elmcan 287#615B6866CC021310
(1638973306.101629) elmcan 287#615B6866CC021310
(1638973306.202573) elmcan 287#615B6866CC021310
(1638973306.301063) elmcan 287#615B6866CD021310
(1638973306.409877) elmcan 287#615B6866CD021310
(1638973306.503760) elmcan 287#615B6866CF021310
(1638973306.602253) elmcan 287#615B6866CF021310
(1638973306.718969) elmcan 287#615B6866CF021210
(1638973306.802480) elmcan 287#615B6866CF021310
(1638973306.900978) elmcan 287#615B6866CF021310
(1638973307.002263) elmcan 287#615B6866D0021210
(1638973307.101693) elmcan 287#615B6866CF021210
(1638973307.203952) elmcan 287#615B6866CE021310
(1638973307.305882) elmcan 287#615B6866CE021310
(1638973307.407254) elmcan 287#615B6866CD021310
(1638973307.503384) elmcan 287#615B6866CC021310
(1638973307.603052) elmcan 287#615B6866CC021311
(1638973307.713986) elmcan 287#615B6866CC021211
(1638973307.803353) elmcan 287#615B6866CC021310
(1638973307.901028) elmcan 287#615B6866CC021311
(1638973308.001791) elmcan 287#615B6866CC021310
(1638973308.107161) elmcan 287#615B6866CD021311
(1638973308.205470) elmcan 287#615B6866CF021311
(1638973308.300085) elmcan 287#615B6866D2021210
(1638973308.401095) elmcan 287#615B6866D3021311
(1638973308.501605) elmcan 287#615B6866D4021311
(1638973308.601753) elmcan 287#615B6866D5021311
(1638973308.712064) elmcan 287#615B6866D5021211
(1638973308.801565) elmcan 287#615B6866D3021311
(1638973308.897817) elmcan 287#615B6866D1021211
(1638973308.997239) elmcan 287#615B6866CC021311
(1638973309.095779) elmcan 287#615B6866C8021310
(1638973309.196494) elmcan 287#615B6866C5021211
(1638973309.295423) elmcan 287#615B6866C4021411
(1638973309.398974) elmcan 287#615B6866C3021210
(1638973309.497279) elmcan 287#615B6866C3021210
(1638973309.596317) elmcan 287#615B6866C4021311
(1638973309.711517) elmcan 287#615B6866C5021311
(1638973309.795446) elmcan 287#615B6866C7021311
(1638973309.895735) elmcan 287#615B6866C7021311
(1638973310.097574) elmcan 287#615B6866C9021311
(1638973310.294973) elmcan 287#615B6866CC021211
(1638973310.498409) elmcan 287#615B6866CA021310
(1638973310.596790) elmcan 287#615B6866C8021210
(1638973310.708575) elmcan 287#615B6866C5021310
(1638973310.897645) elmcan 287#615B6866C4021311
(1638973310.996205) elmcan 287#615B6866C3021311
(1638973311.093556) elmcan 287#615B6866C3021311
(1638973311.193799) elmcan 287#615B6866C3021310
(1638973311.292344) elmcan 287#615B6866C3021310
(1638973311.388949) elmcan 287#615B6866C4021311
(1638973311.493847) elmcan 287#615B6866C4021310
(1638973311.592983) elmcan 287#615B6866C4021410
(1638973311.702739) elmcan 287#615B6866C4021310
(1638973311.792860) elmcan 287#615B6866C3021310
(1638973311.890134) elmcan 287#615B6866C3021310
(1638973311.990119) elmcan 287#615B6866C4021310
(1638973312.090205) elmcan 287#615B6866C4021210
(1638973312.293334) elmcan 287#615B6866C5021310
(1638973312.393470) elmcan 287#615B6866C5021310
(1638973312.497543) elmcan 287#615B6866C5021310
(1638973312.593760) elmcan 287#615B6866C6021010
(1638973312.712763) elmcan 287#615B6866C7021310
(1638973312.797546) elmcan 287#615B6866CB021210
(1638973312.896387) elmcan 287#615B6866CF021310
(1638973312.996373) elmcan 287#615B6866CF02130F
(1638973313.095253) elmcan 287#615B6866CC021210
(1638973313.194740) elmcan 287#615B6866CA021310
(1638973313.299095) elmcan 287#615B6866C8021310
(1638973313.394620) elmcan 287#615B6866C502120F
(1638973313.634647) elmcan 287#615B6866C102130F
(1638973313.709497) elmcan 287#615B6866BF02130F
(1638973313.793552) elmcan 287#615B6866BE02130F
(1638973313.996796) elmcan 287#615B6866BC021410
(1638973314.099642) elmcan 287#615B6866BC021310
(1638973314.202482) elmcan 287#615B6866BC021310
(1638973314.305563) elmcan 287#615B6866BB021310
(1638973314.407064) elmcan 287#615B6866BA021310
(1638973314.507550) elmcan 287#615B6866B6021410
(1638973314.604872) elmcan 287#615B6866B1021410
(1638973314.722194) elmcan 287#615B6866AE021310
(1638973314.799170) elmcan 287#615B6866AC02130F
(1638973314.899980) elmcan 287#615B6866AC021210
(1638973314.998007) elmcan 287#615B6866AC021310
(1638973315.104485) elmcan 287#615B6866AC021210
(1638973315.203899) elmcan 287#615B6866AC021310
(1638973315.300986) elmcan 287#615B6866AC021310
(1638973315.400945) elmcan 287#615B6866AC021310
(1638973315.503252) elmcan 287#615B6866AE021310
(1638973315.600397) elmcan 287#615B6866AF02130F
(1638973315.714059) elmcan 287#615B6866B002120F
(1638973315.801235) elmcan 287#615B6866B102130F
(1638973315.903488) elmcan 287#615B6866B202130F
(1638973316.003089) elmcan 287#615B6866B302120F
(1638973316.103645) elmcan 287#615B6866B502130F
(1638973316.205809) elmcan 287#615B6866B702130F
(1638973316.306037) elmcan 287#615B6866B802130F
(1638973316.409348) elmcan 287#615B6866B902120E
(1638973316.501485) elmcan 287#615B6866B902120E
(1638973316.603411) elmcan 287#615B6866B902120E
(1638973316.728943) elmcan 287#615B6866B902130E
(1638973316.806429) elmcan 287#615B6866B902120F
(1638973316.907576) elmcan 287#615B6866B902120E
(1638973317.000033) elmcan 287#615B6866B902120E
(1638973317.100954) elmcan 287#615B6866B802120E
(1638973317.205121) elmcan 287#615B6866B802130F
(1638973317.301639) elmcan 287#615B6866B802130F
(1638973317.402578) elmcan 287#615B6866B802110E
(1638973317.502287) elmcan 287#615B6866B802110E
(1638973317.604193) elmcan 287#615B6866B802110E
(1638973317.713625) elmcan 287#615B6866B802110D
(1638973317.803547) elmcan 287#615B6866B802110E
(1638973317.900861) elmcan 287#615B6866B802110E
(1638973317.998828) elmcan 287#615B6866B902100E
(1638973318.102214) elmcan 287#615B6866B802110F
(1638973318.207815) elmcan 287#615B6866B802110F
(1638973318.307300) elmcan 287#615B6866B802110E
(1638973318.406141) elmcan 287#615B6866B802100E
(1638973318.504783) elmcan 287#615B6866B702100D
(1638973318.607357) elmcan 287#615B6866B6020F0D
(1638973318.723022) elmcan 287#615B6866B602100E
(1638973318.805624) elmcan 287#615B6866B602100E
(1638973318.904682) elmcan 287#615B6866B602100D
(1638973319.002555) elmcan 287#615B6866B602100E
(1638973319.105386) elmcan 287#615B6866B602100E
(1638973319.202424) elmcan 287#615B6866B602100E
(1638973319.302972) elmcan 287#615B6866B602100E
(1638973319.400117) elmcan 287#615B6866B6020E0D
(1638973319.501396) elmcan 287#615B6866B6020D0D
(1638973319.601731) elmcan 287#615B6866B5020B0E
(1638973319.716111) elmcan 287#615B6866B502090D
(1638973319.800175) elmcan 287#615B6866B502070D
(1638973319.901539) elmcan 287#615B6866B502070D
(1638973320.000217) elmcan 287#615B6866B602070D
(1638973320.096933) elmcan 287#615B6866B602070D
(1638973320.201060) elmcan 287#615B6866B802070D
(1638973320.299774) elmcan 287#615B6866BB02070D
(1638973320.399971) elmcan 287#625B6866BE02050D
(1638973320.499917) elmcan 287#625B6866C102050D
(1638973320.600415) elmcan 287#625B6866C502050D
(1638973320.712648) elmcan 287#625B6866C702050D
(1638973320.901274) elmcan 287#625B6866C902050C
(1638973321.001580) elmcan 287#625B6866C802040C
(1638973321.101790) elmcan 287#625B6866C802040D
(1638973321.202438) elmcan 287#625B6866C402040D
(1638973321.302077) elmcan 287#625B6866C402050D
(1638973321.504410) elmcan 287#625B6866C402020C
(1638973321.605152) elmcan 287#625B6866C302020C
(1638973321.718375) elmcan 287#625B6866C302010D
(1638973321.803870) elmcan 287#625B6866C702020C
(1638973321.902343) elmcan 287#625B6866CE02020C
(1638973322.002428) elmcan 287#625B6866D602020C
(1638973322.104441) elmcan 287#625B6866DD02020B
(1638973322.207972) elmcan 287#625B6866E702020C
(1638973322.309518) elmcan 287#625B6866EB02020C
(1638973322.407627) elmcan 287#625B6866EE02000B
(1638973322.503805) elmcan 287#625B6866EF02000C
(1638973322.607254) elmcan 287#625B6866F002000C
(1638973322.805670) elmcan 287#625B6866F002000B
(1638973322.905636) elmcan 287#625B6866F002000C
(1638973323.105139) elmcan 287#625B6866F102000C
(1638973323.203590) elmcan 287#625B6866F102000C
(1638973323.305096) elmcan 287#625B6866F102000C
(1638973323.404064) elmcan 287#625B6866F102000B
(1638973323.501996) elmcan 287#625B6866F102000B
(1638973323.602932) elmcan 287#625B6866F102000B
(1638973323.710978) elmcan 287#625B6866F102000C
(1638973323.800425) elmcan 287#625B6866F102000C
(1638973323.899061) elmcan 287#625B6866F102000C
(1638973324.001403) elmcan 287#625B6866F102000B
(1638973324.102236) elmcan 287#625B6866F102000B
(1638973324.199638) elmcan 287#625B6866F202000B
(1638973324.300379) elmcan 287#625B6866F202000C
(1638973324.401054) elmcan 287#625B6866F202000C
(1638973324.499739) elmcan 287#625B6866F202000C
(1638973324.600803) elmcan 287#625B6866F202000C
(1638973324.803806) elmcan 287#615B6866F202000C
(1638973324.899279) elmcan 287#615B6866F202000C
(1638973325.000079) elmcan 287#615B6866F202000C
(1638973325.095484) elmcan 287#615B6866F202000C
(1638973325.200594) elmcan 287#615B6866F202000C
(1638973325.299151) elmcan 287#615B6866F202000C
(1638973325.393162) elmcan 287#615B6866F302000C
(1638973325.494538) elmcan 287#615B6866F302000C
(1638973325.594636) elmcan 287#615B6866F302000C
(1638973325.706476) elmcan 287#615B6866F302000C
(1638973325.797474) elmcan 287#615B6866F302000C
(1638973325.996217) elmcan 287#615B6866F302000C
(1638973326.094820) elmcan 287#615B6866F302000C
(1638973326.395469) elmcan 287#615B6866F302000C
(1638973326.496248) elmcan 287#615B6866F202000D
(1638973326.595475) elmcan 287#615B6866F302000D
(1638973326.710769) elmcan 287#615B6866F302000C
(1638973326.895449) elmcan 287#615B6866F302000C
(1638973326.999287) elmcan 287#615B6866F302000C
(1638973327.104950) elmcan 287#615B6866F302000D
(1638973327.201559) elmcan 287#615B6866F302000D
(1638973327.303584) elmcan 287#615B6866F302000C
(1638973327.406452) elmcan 287#615B6866F302000C
(1638973327.505886) elmcan 287#615B6866F302000D
(1638973327.607000) elmcan 287#615B6866F302000C
(1638973327.720597) elmcan 287#615B6866F402000D
(1638973327.806668) elmcan 287#615B6866F302000D
(1638973327.906163) elmcan 287#615B6866F302000C
(1638973328.010458) elmcan 287#615B6866F302000D
(1638973328.112873) elmcan 287#615B6866F302000C
(1638973328.316374) elmcan 287#615B6866F302000C
(1638973328.518450) elmcan 287#615B6866F302000D
(1638973328.733730) elmcan 287#615B6866F402000C
(1638973328.821114) elmcan 287#615B6866F302000D
(1638973329.024409) elmcan 287#615B6866F302000C
(1638973329.323515) elmcan 287#615B6866F202000E
(1638973329.426681) elmcan 287#615B6866F202000D
(1638973329.627410) elmcan 287#615B6866F002000C
(1638973329.827697) elmcan 287#615B6866EE02000D
(1638973329.929950) elmcan 287#615B6866ED02000D
(1638973330.029901) elmcan 287#615B6866EC02000D
(1638973330.228760) elmcan 287#615B6866EA02000C
(1638973330.330730) elmcan 287#615B6866EA02000D
(1638973330.530264) elmcan 287#615B6866E902000D
(1638973330.629229) elmcan 287#615B6866E802000D
(1638973330.824263) elmcan 287#615B6866E702000E
(1638973330.927517) elmcan 287#615B6866E702000E
(1638973331.126168) elmcan 287#615B6866E602000D
(1638973331.223283) elmcan 287#615B6866E602000E
(1638973331.327642) elmcan 287#615B6866E602000E
(1638973331.426373) elmcan 287#615B6866E502070D
(1638973331.525152) elmcan 287#615B6866E502010E
(1638973331.629601) elmcan 287#615B6866E502000D
(1638973331.742760) elmcan 287#615B6866E502010D
(1638973332.623920) elmcan 287#615B6866E402020E
(1638973332.734976) elmcan 287#615B6866E402020E
(1638973333.022717) elmcan 287#615B6866E402020E
(1638973333.126652) elmcan 287#615B6866E402020E
(1638973333.226297) elmcan 287#615B6866E402020E
(1638973333.328253) elmcan 287#615B6866E402030F
(1638973333.427459) elmcan 287#615B6866E402030E
(1638973333.529810) elmcan 287#615B6866E402030E
(1638973333.626628) elmcan 287#615B6866E402030E
(1638973333.928916) elmcan 287#615B6866E402040E
(1638973334.034196) elmcan 287#615B6866E402040E
(1638973334.126649) elmcan 287#615B6866E402040E
(1638973334.228486) elmcan 287#615B6866E402040D
(1638973334.739894) elmcan 287#615B6866E402050E
(1638973334.823823) elmcan 287#615B6866E402050E
(1638973335.325949) elmcan 287#615B6866E402050D
(1638973335.521415) elmcan 287#615B6866E402060E
(1638973335.735830) elmcan 287#615B6866E302060E
(1638973335.819669) elmcan 287#615B6866E402060E
(1638973336.027515) elmcan 287#615B6866E402060E
(1638973336.121792) elmcan 287#615B6866E402060E
(1638973336.620389) elmcan 287#615B6866E402070E
(1638973336.822950) elmcan 287#615B6866E402080D
(1638973337.118830) elmcan 287#615B6866E402080E
(1638973337.318725) elmcan 287#615B6866E402080D
(1638973337.422532) elmcan 287#615B6866E402080D
(1638973337.622272) elmcan 287#615B6866E402080E
(1638973337.736925) elmcan 287#615B6866E302080E
(1638973338.123289) elmcan 287#615B6866E402090D
(1638973338.225045) elmcan 287#615B6866E402090E
(1638973338.325698) elmcan 287#615B6866E3020A0E
(1638973338.428130) elmcan 287#615B6866E302090F
(1638973338.529240) elmcan 287#615B6866E3020A0F
(1638973338.624986) elmcan 287#615B6866E3020A0F
(1638973338.822669) elmcan 287#615B6866E3020A0E
(1638973338.924960) elmcan 287#615B6866E2020A0E
(1638973339.023811) elmcan 287#615B6866DF020A0F
(1638973339.123805) elmcan 287#615B6866DD020B0F
(1638973339.223598) elmcan 287#615B6866DC020B0F
(1638973339.321191) elmcan 287#615B6866DA020B0E
(1638973339.423925) elmcan 287#615B6866D9020B0F
(1638973339.521920) elmcan 287#615B6866D6020B0F
(1638973339.816929) elmcan 287#615B6866D1020C0F
(1638973340.026231) elmcan 287#615B6866D0020C0F
(1638973340.127701) elmcan 287#615B6866CE020C0F
(1638973340.221942) elmcan 287#615B6866CD020C0F
(1638973340.322450) elmcan 287#615B6866CC020C0F
(1638973340.423447) elmcan 287#615B6866CA020D0F
(1638973340.823318) elmcan 287#615B6866C4020E0F
(1638973340.922878) elmcan 287#615B6866C3020E0F
(1638973341.325951) elmcan 287#615B6866C2020F0F
(1638973341.527080) elmcan 287#615B6866C2020F0F
(1638973341.625496) elmcan 287#615B6866C2020E10
(1638973341.753559) elmcan 287#615B6866C2020F0F
(1638973341.826170) elmcan 287#615B6866C3020F10
(1638973341.928434) elmcan 287#615B6866C3020F10
(1638973342.029664) elmcan 287#615B6866C2020F0F
(1638973342.133478) elmcan 287#615B6866C1020F0F
(1638973342.229788) elmcan 287#615B6866BE020F0F
(1638973342.329356) elmcan 287#615B6866BD020F10
(1638973342.531666) elmcan 287#615B6866B902100E
(1638973342.630939) elmcan 287#615B6866B702100E
(1638973342.932891) elmcan 287#615B6866B202110E
(1638973343.033901) elmcan 287#615B6866B102110D
(1638973343.128042) elmcan 287#615B6866AF02110E
(1638973343.230494) elmcan 287#615B6866AE02110E
(1638973343.333386) elmcan 287#615B6866AD02110E
(1638973343.434566) elmcan 287#615B6866AB02110E
(1638973343.530470) elmcan 287#615B6866AA02120F
(1638973343.633194) elmcan 287#615B6866A902110F
(1638973343.837337) elmcan 287#615B6866A7021210
(1638973343.935782) elmcan 287#615B6866A602120F
(1638973344.235216) elmcan 287#615B6866A302120F
(1638973344.537520) elmcan 287#615B68669F021310
(1638973344.636236) elmcan 287#615B68669E021310
(1638973344.937294) elmcan 287#615B68669B021410
(1638973345.037128) elmcan 287#615B68669A021410
(1638973345.235275) elmcan 287#615B68669A021311
(1638973345.336303) elmcan 287#615B68669A021311
(1638973345.435192) elmcan 287#615B68669B021310
(1638973345.634375) elmcan 287#615B68669F021411
(1638973346.135075) elmcan 287#615B6866AE021311
(1638973346.232152) elmcan 287#615B6866AE021211
(1638973346.336093) elmcan 287#615B6866AE021311
(1638973346.435612) elmcan 287#615B6866AE021310
(1638973346.537093) elmcan 287#615B6866AF02130F
(1638973346.630888) elmcan 287#615B6866B0021310
(1638973346.743574) elmcan 287#615B6866B1021410
(1638973346.834440) elmcan 287#615B6866B102120F
(1638973346.928342) elmcan 287#615B6866B202140F
(1638973347.128123) elmcan 287#615B6866B4021310
(1638973347.231169) elmcan 287#615B6866B602130F
(1638973347.333632) elmcan 287#615B6866BA02110F
(1638973347.434364) elmcan 287#615B6866BD02130F
(1638973347.533192) elmcan 287#615B6866C002140F
(1638973347.632747) elmcan 287#615B6866C402130F
(1638973347.831676) elmcan 287#615B6866C702120E
(1638973348.033238) elmcan 287#615B6866C3021210
(1638973348.135037) elmcan 287#615B6866C202130F
(1638973348.343050) elmcan 287#615B6866C4021310
(1638973348.446226) elmcan 287#615B6866C602120F
(1638973348.645723) elmcan 287#615B6866C902120F
(1638973348.749422) elmcan 287#615B6866C9021310
(1638973348.849604) elmcan 287#615B6866C902130F
(1638973348.952869) elmcan 287#615B6866C902120F
(1638973349.052087) elmcan 287#615B6866C7021310
(1638973349.155573) elmcan 287#615B6866C502130F
(1638973349.259389) elmcan 287#615B6866C5021210
(1638973349.363638) elmcan 287#615B6866C502130F
(1638973349.461323) elmcan 287#615B6866C502120F
(1638973349.668428) elmcan 287#615B6866C602120F
(1638973349.767216) elmcan 287#615B6866C602130F
(1638973349.972212) elmcan 287#615B6866C502120F
(1638973350.073578) elmcan 287#615B6866C4021310
(1638973350.176302) elmcan 287#615B6866C302120F
(1638973350.286594) elmcan 287#615B6866C102130F
(1638973350.385844) elmcan 287#615B6866BF02130F
(1638973350.486734) elmcan 287#615B6866BE021410
(1638973350.590536) elmcan 287#615B6866BD02130F
(1638973350.688794) elmcan 287#615B6866C1021410
(1638973350.791733) elmcan 287#615B6866C8021210
(1638973351.090318) elmcan 287#615B6866DC02120F
(1638973351.292484) elmcan 287#615B6866E802120F
(1638973351.389942) elmcan 287#615B6866E802120E
(1638973351.485882) elmcan 287#615B6866E902120F
(1638973351.785448) elmcan 287#615B6866EA02120F
(1638973351.889130) elmcan 287#615B6866E902120F
(1638973351.987591) elmcan 287#615B6866E902110F
(1638973352.085898) elmcan 287#615B6866E902110F
(1638973352.186400) elmcan 287#615B6866E702110F
(1638973352.286979) elmcan 287#615B6866E602120F
(1638973352.385821) elmcan 287#615B6866E502110F
(1638973352.587166) elmcan 287#615B6866E302120F
(1638973352.879012) elmcan 287#615B6866DF02120F
(1638973353.182491) elmcan 287#615B6866D9021210
(1638973353.281995) elmcan 287#615B6866D702120F
(1638973353.380193) elmcan 287#615B6866D602120F
(1638973353.477168) elmcan 287#615B6866D402130F
(1638973353.580329) elmcan 287#615B6866D2021210
(1638973353.779634) elmcan 287#615B6866D1021310
(1638973353.876864) elmcan 287#615B6866D102120F
(1638973353.977574) elmcan 287#615B6866D102120F
(1638973354.082951) elmcan 287#615B6866D102120F
(1638973354.174445) elmcan 287#615B6866D1021310
(1638973354.285029) elmcan 287#615B6866D102130F
(1638973354.375215) elmcan 287#615B6866D1021210
(1638973354.472455) elmcan 287#615B6866D102120F
(1638973354.575371) elmcan 287#615B6866D102120F
(1638973354.668048) elmcan 287#615B6866D102130F
(1638973354.773105) elmcan 287#615B6866D202130F
(1638973354.871015) elmcan 287#615B6866D302130F
(1638973354.972236) elmcan 287#615B6866D402120F
(1638973355.071427) elmcan 287#615B6866D302120F
(1638973355.175298) elmcan 287#615B6866D002120F
(1638973355.273288) elmcan 287#615B6866CE02130F
(1638973355.371757) elmcan 287#615B6866CC02120F
(1638973355.471816) elmcan 287#615B6866CC02130F
(1638973355.575845) elmcan 287#615B6866CC021210
(1638973355.671920) elmcan 287#615B6866CC02130F
(1638973355.767275) elmcan 287#615B6866CB02120F
(1638973355.872442) elmcan 287#615B6866CC02130F
(1638973355.971738) elmcan 287#615B6866CC02130F
(1638973356.068483) elmcan 287#615B6866CD02120F
(1638973356.170733) elmcan 287#615B6866CD021310
(1638973356.269332) elmcan 287#615B6866CD02130F
(1638973356.367436) elmcan 287#615B6866CD02130F
(1638973356.466612) elmcan 287#615B6866CD02120F
(1638973356.568054) elmcan 287#615B6866CC02130F
(1638973356.763875) elmcan 287#615B6866CB021310
(1638973356.864314) elmcan 287#615B6866CC02130F
(1638973356.965438) elmcan 287#615B6866CD02120F
(1638973357.069828) elmcan 287#615B6866CE02130F
(1638973357.163558) elmcan 287#615B6866CF02130F
(1638973357.266644) elmcan 287#615B6866CF021310
(1638973357.365313) elmcan 287#615B6866D0021210
(1638973357.464379) elmcan 287#615B6866D102120F
(1638973357.565556) elmcan 287#615B6866D102130F
(1638973357.659683) elmcan 287#615B6866D202120F
(1638973357.765208) elmcan 287#615B6866D202120F
(1638973357.862142) elmcan 287#615B6866D202130F
(1638973357.965599) elmcan 287#615B6866D3021210
(1638973358.061455) elmcan 287#615B6866D402120F
(1638973358.162185) elmcan 287#615B6866D602120F
(1638973358.262934) elmcan 287#615B6866D602120F
(1638973358.361817) elmcan 287#615B6866D602130F
(1638973358.456868) elmcan 287#615B6866D602120F
(1638973358.562052) elmcan 287#615B6866D602120F
(1638973358.658009) elmcan 287#615B6866D502130F
(1638973358.857498) elmcan 287#615B6866D502130F
(1638973358.957203) elmcan 287#615B6866D502120F
(1638973359.258434) elmcan 287#615B6866D802120F
(1638973359.354929) elmcan 287#615B6866DA02120F
(1638973359.456228) elmcan 287#615B6866D902130E
(1638973359.556219) elmcan 287#615B6866D902120E
(1638973359.654033) elmcan 287#615B6866D802120E
(1638973359.759676) elmcan 287#615B6866D702120F
(1638973359.856475) elmcan 287#615B6866D502130F
(1638973359.954246) elmcan 287#615B6866D402120F
(1638973360.054299) elmcan 287#615B6866D402120F
(1638973360.255573) elmcan 287#615B6866D402120F
(1638973360.353244) elmcan 287#615B6866D402130E
(1638973360.553228) elmcan 287#615B6866D302130F
(1638973360.650024) elmcan 287#615B6866D202120E
(1638973360.952235) elmcan 287#615B6866CE02130E
(1638973361.049463) elmcan 287#615B6866CD02120F
(1638973361.152236) elmcan 287#615B6866CD02120F
(1638973361.249549) elmcan 287#615B6866CC02120F
(1638973361.349410) elmcan 287#615B6866CC02130E
(1638973361.448195) elmcan 287#615B6866CB02120E
(1638973361.548220) elmcan 287#615B6866CB020E0E
(1638973361.743960) elmcan 287#615B6866CA02120E
(1638973361.847477) elmcan 287#615B6866CA02130E
(1638973361.944998) elmcan 287#615B6866CA02120E
(1638973362.042432) elmcan 287#615B6866C902120E
(1638973362.446959) elmcan 287#615B6866C802130E
(1638973363.143885) elmcan 287#615B6866CB02120E
(1638973363.345196) elmcan 287#615B6866CE02120E
(1638973363.441251) elmcan 287#615B6866CF02120D
(1638973363.537586) elmcan 287#615B6866D002120D
(1638973363.641328) elmcan 287#615B6866D002120D
(1638973363.740906) elmcan 287#615B6866D002130E
(1638973363.840667) elmcan 287#615B6866CF02130E
(1638973363.935631) elmcan 287#615B6866CD02120E
(1638973364.039988) elmcan 287#615B6866CB02120D
(1638973364.136918) elmcan 287#615B6866C902120D
(1638973364.241270) elmcan 287#615B6866C802130E
(1638973364.337038) elmcan 287#615B6866C702130E
(1638973364.437418) elmcan 287#615B6866C602130E
(1638973364.534275) elmcan 287#615B6866C502120D
(1638973364.635370) elmcan 287#615B6866C602120D
(1638973364.834503) elmcan 287#615B6866CB02120E
(1638973364.932036) elmcan 287#615B6866CD02120D
(1638973365.032469) elmcan 287#615B6866CE02120D
(1638973365.131673) elmcan 287#615B6866CE02120E
(1638973365.233775) elmcan 287#615B6866CF02130D
(1638973365.432481) elmcan 287#615B6866D002130D
(1638973365.531324) elmcan 287#615B6866D102120D
(1638973365.632343) elmcan 287#615B6866CF02130D
(1638973365.746468) elmcan 287#615B6866CE02120C
(1638973365.932025) elmcan 287#615B6866CD02120D
(1638973366.032027) elmcan 287#615B6866CD02120D
(1638973366.127386) elmcan 287#615B6866CC02130D
(1638973366.228359) elmcan 287#615B6866CD02130D
(1638973366.327411) elmcan 287#615B6866CE02120E
(1638973366.740813) elmcan 287#615B6866D402120E
(1638973366.824697) elmcan 287#615B6866D402120E
(1638973366.926871) elmcan 287#615B6866D402120E
(1638973367.123836) elmcan 287#615B6866CE02120E
(1638973367.226579) elmcan 287#615B6866CC02120E
(1638973367.323772) elmcan 287#615B6866CB02120E
(1638973367.425361) elmcan 287#615B6866C802120D
(1638973367.525735) elmcan 287#615B6866C702130D
(1638973367.626440) elmcan 287#615B6866C602120D
(1638973367.758740) elmcan 287#615B6866C502120D
(1638973367.824162) elmcan 287#615B6866C502120D
(1638973367.925023) elmcan 287#615B6866C402120D
(1638973368.122797) elmcan 287#615B6866C402120E
(1638973368.221149) elmcan 287#615B6866C402120C
(1638973368.327081) elmcan 287#615B6866C302120C
(1638973368.626062) elmcan 287#615B6866C202110B
(1638973368.822682) elmcan 287#615B6866C102110B
(1638973369.121232) elmcan 287#615B6866C002130C
(1638973369.233869) elmcan 287#615B6866C002130C
(1638973369.324506) elmcan 287#615B6866C002110B
(1638973369.425920) elmcan 287#615B6866C102120B
(1638973369.628203) elmcan 287#615B6866C002110C
(1638973369.734542) elmcan 287#615B6866C002120C
(1638973369.824364) elmcan 287#615B6866C002110C
(1638973369.925885) elmcan 287#615B6866C002120C
(1638973370.025501) elmcan 287#615B6866C002110C
(1638973370.424894) elmcan 287#615B6866BD02110C
(1638973370.523565) elmcan 287#615B6866BC02110D
(1638973370.625108) elmcan 287#615B6866BD02110C
(1638973370.730529) elmcan 287#615B6866BD02110C
(1638973370.824014) elmcan 287#615B6866BE02100D
(1638973370.927628) elmcan 287#615B6866BE02110C
(1638973371.129142) elmcan 287#615B6866BE02110C
(1638973371.228874) elmcan 287#615B6866BE02110D
(1638973371.333014) elmcan 287#615B6866BE02100C
(1638973371.428208) elmcan 287#615B6866BD02100D
(1638973371.528299) elmcan 287#615B6866BD020F0D
(1638973371.630281) elmcan 287#615B6866BC02100D
(1638973371.750411) elmcan 287#615B6866BC02100D
(1638973371.829497) elmcan 287#615B6866BB02100C
(1638973372.030623) elmcan 287#615B6866BA02100C
(1638973372.228929) elmcan 287#615B6866B902100D
(1638973372.327621) elmcan 287#615B6866B902100D
(1638973372.431009) elmcan 287#615B6866B9020F0D
(1638973372.528954) elmcan 287#615B6866B9020F0D
(1638973372.628053) elmcan 287#615B6866B9020F0D
(1638973372.829035) elmcan 287#615B6866B902100D
(1638973373.127522) elmcan 287#615B6866BD020F0D
(1638973373.227780) elmcan 287#625B6866C1020F0D
(1638973373.325184) elmcan 287#625B6866C6020F0D
(1638973373.423616) elmcan 287#625B6866C9020C0C
(1638973373.523691) elmcan 287#625B6866CD020B0D
(1638973373.624856) elmcan 287#625B6866CD02090D
(1638973373.827435) elmcan 287#625B6866C702060D
(1638973373.922628) elmcan 287#625B6866C502060D
(1638973374.027712) elmcan 287#625B6866C402060D
(1638973374.127186) elmcan 287#625B6866C302060D
(1638973374.219490) elmcan 287#625B6866C202050C
(1638973374.322213) elmcan 287#625B6866C202060D
(1638973374.422141) elmcan 287#625B6866C102040D
(1638973374.526160) elmcan 287#625B6866C102030D
(1638973374.622408) elmcan 287#625B6866C202030D
(1638973374.744763) elmcan 287#625B6866C302030D
(1638973374.824892) elmcan 287#625B6866C402030D
(1638973374.925971) elmcan 287#625B6866C502030D
(1638973375.230015) elmcan 287#625B6866C402030D
(1638973375.329965) elmcan 287#625B6866C302030D
(1638973375.429767) elmcan 287#625B6866C302020D
(1638973375.524354) elmcan 287#625B6866C302010D
(1638973375.738258) elmcan 287#625B6866C602010D
(1638973375.825047) elmcan 287#625B6866C902010C
(1638973375.924821) elmcan 287#625B6866CC02010D
(1638973376.027284) elmcan 287#625B6866CD02010D
(1638973376.124171) elmcan 287#625B6866CD02010D
(1638973376.222710) elmcan 287#625B6866CD02020D
(1638973376.323369) elmcan 287#625B6866CD02000C
(1638973376.920073) elmcan 287#625B6866C702000D
(1638973377.222218) elmcan 287#625B6866C602000D
(1638973377.421151) elmcan 287#625B6866C302000E
(1638973377.620140) elmcan 287#625B6866C002000E
